# //  Questa Sim-64
# //  Version 2023.4 linux_x86_64 Oct  9 2023
# //
# //  Copyright 1991-2023 Mentor Graphics Corporation
# //  All Rights Reserved.
# //
# //  QuestaSim and its associated documentation contain trade
# //  secrets and commercial or financial information that are the property of
# //  Mentor Graphics Corporation and are privileged, confidential,
# //  and exempt from disclosure under the Freedom of Information Act,
# //  5 U.S.C. Section 552. Furthermore, this information
# //  is prohibited from disclosure under the Trade Secrets Act,
# //  18 U.S.C. Section 1905.
# //
# vsim -vopt axi_top -assertdebug -do "run -all; exit" "+UVM_TESTNAME=axi_wrap_narrow_test" 
# Start time: 23:31:32 on Sep 02,2025
# ** Note: (vsim-3813) Design is being optimized due to module recompilation...
# ** Warning: (vopt-10587) Some optimizations are turned off because the +acc switch is in effect. This will cause your simulation to run slowly. Please use -access/-debug to maintain needed visibility.
# ** Note: (vsim-12126) Error and warning message counts have been restored: Errors=0, Warnings=1.
# Loading sv_std.std
# Loading work.axi_sinf(fast)
# Loading work.axi_minf(fast)
# Loading mtiUvm.uvm_pkg(fast)
# Loading work.axi_spkg(fast)
# Loading work.axi_mpkg(fast)
# Loading work.axi_env_pkg(fast)
# Loading work.axi_test_pkg(fast)
# Loading mtiUvm.questa_uvm_pkg(fast)
# Loading work.axi_top(fast)
# Loading work.axi_minf(fast__2)
# Loading work.axi_sinf(fast__3)
# Loading work.axi_minf(fast__3)
# Loading work.axi_sinf(fast__4)
# Loading work.axi_assertion(fast)
# ** Warning: (vsim-8637) A modport ('SDRV_MP') should not be used in a hierarchical path.
#    Time: 0 ns  Iteration: 0  Region: /axi_spkg::axi_sdrv #(32, 32) File: ../ENV/AXI_S_AGENT/axi_sdrv.svh Line: 70
# ** Warning: (vsim-8637) A modport ('SDRV_MP') should not be used in a hierarchical path.
#    Time: 0 ns  Iteration: 0  Region: /axi_spkg::axi_sdrv #(32, 32) File: ../ENV/AXI_S_AGENT/axi_sdrv.svh Line: 79
# ** Warning: (vsim-8637) A modport ('SDRV_MP') should not be used in a hierarchical path.
#    Time: 0 ns  Iteration: 0  Region: /axi_spkg::axi_sdrv #(32, 32) File: ../ENV/AXI_S_AGENT/axi_sdrv.svh Line: 86
# ** Warning: (vsim-8637) A modport ('SDRV_MP') should not be used in a hierarchical path.
#    Time: 0 ns  Iteration: 0  Region: /axi_spkg::axi_sdrv #(32, 32) File: ../ENV/AXI_S_AGENT/axi_sdrv.svh Line: 102
# ** Warning: (vsim-8637) A modport ('SDRV_MP') should not be used in a hierarchical path.
#    Time: 0 ns  Iteration: 0  Region: /axi_spkg::axi_sdrv #(32, 32) File: ../ENV/AXI_S_AGENT/axi_sdrv.svh Line: 134
# ** Warning: (vsim-8637) A modport ('SMON_MP') should not be used in a hierarchical path.
#    Time: 0 ns  Iteration: 0  Region: /axi_spkg::axi_smon #(32, 32) File: ../ENV/AXI_S_AGENT/axi_smon.svh Line: 66
# ** Warning: (vsim-8637) A modport ('SMON_MP') should not be used in a hierarchical path.
#    Time: 0 ns  Iteration: 0  Region: /axi_spkg::axi_smon #(32, 32) File: ../ENV/AXI_S_AGENT/axi_smon.svh Line: 75
# ** Warning: (vsim-8637) A modport ('SMON_MP') should not be used in a hierarchical path.
#    Time: 0 ns  Iteration: 0  Region: /axi_spkg::axi_smon #(32, 32) File: ../ENV/AXI_S_AGENT/axi_smon.svh Line: 96
# ** Warning: (vsim-8637) A modport ('SMON_MP') should not be used in a hierarchical path.
#    Time: 0 ns  Iteration: 0  Region: /axi_spkg::axi_smon #(32, 32) File: ../ENV/AXI_S_AGENT/axi_smon.svh Line: 104
# ** Warning: (vsim-8637) A modport ('SMON_MP') should not be used in a hierarchical path.
#    Time: 0 ns  Iteration: 0  Region: /axi_spkg::axi_smon #(32, 32) File: ../ENV/AXI_S_AGENT/axi_smon.svh Line: 122
# ** Warning: (vsim-8637) A modport ('SMON_MP') should not be used in a hierarchical path.
#    Time: 0 ns  Iteration: 0  Region: /axi_spkg::axi_smon #(32, 32) File: ../ENV/AXI_S_AGENT/axi_smon.svh Line: 129
# ** Warning: (vsim-8637) A modport ('SMON_MP') should not be used in a hierarchical path.
#    Time: 0 ns  Iteration: 0  Region: /axi_spkg::axi_smon #(32, 32) File: ../ENV/AXI_S_AGENT/axi_smon.svh Line: 130
# ** Warning: (vsim-8637) A modport ('SMON_MP') should not be used in a hierarchical path.
#    Time: 0 ns  Iteration: 0  Region: /axi_spkg::axi_smon #(32, 32) File: ../ENV/AXI_S_AGENT/axi_smon.svh Line: 149
# ** Warning: (vsim-8637) A modport ('SMON_MP') should not be used in a hierarchical path.
#    Time: 0 ns  Iteration: 0  Region: /axi_spkg::axi_smon #(32, 32) File: ../ENV/AXI_S_AGENT/axi_smon.svh Line: 156
# ** Warning: (vsim-8637) A modport ('SMON_MP') should not be used in a hierarchical path.
#    Time: 0 ns  Iteration: 0  Region: /axi_spkg::axi_smon #(32, 32) File: ../ENV/AXI_S_AGENT/axi_smon.svh Line: 157
# ** Warning: (vsim-8637) A modport ('SMON_MP') should not be used in a hierarchical path.
#    Time: 0 ns  Iteration: 0  Region: /axi_spkg::axi_smon #(32, 32) File: ../ENV/AXI_S_AGENT/axi_smon.svh Line: 177
# ** Warning: (vsim-8637) A modport ('SMON_MP') should not be used in a hierarchical path.
#    Time: 0 ns  Iteration: 0  Region: /axi_spkg::axi_smon #(32, 32) File: ../ENV/AXI_S_AGENT/axi_smon.svh Line: 196
# ** Warning: (vsim-8637) A modport ('SMON_MP') should not be used in a hierarchical path.
#    Time: 0 ns  Iteration: 0  Region: /axi_spkg::axi_smon #(32, 32) File: ../ENV/AXI_S_AGENT/axi_smon.svh Line: 202
# ** Warning: (vsim-8637) A modport ('SMON_MP') should not be used in a hierarchical path.
#    Time: 0 ns  Iteration: 0  Region: /axi_spkg::axi_smon #(32, 32) File: ../ENV/AXI_S_AGENT/axi_smon.svh Line: 70
# ** Warning: (vsim-8386) Illegal assignment to type 'enum bit[2:0] axi_spkg::axi_size_se' from type 'reg[2:0]': An enum variable may only be assigned the same enum typed variable or one of its values.
#    Time: 0 ns  Iteration: 0  Region: /axi_spkg::axi_smon #(32, 32) File: ../ENV/AXI_S_AGENT/axi_smon.svh Line: 77
# ** Warning: (vsim-8386) Illegal assignment to type 'enum bit[1:0] axi_spkg::axi_burst_se' from type 'reg[1:0]': An enum variable may only be assigned the same enum typed variable or one of its values.
#    Time: 0 ns  Iteration: 0  Region: /axi_spkg::axi_smon #(32, 32) File: ../ENV/AXI_S_AGENT/axi_smon.svh Line: 78
# ** Warning: (vsim-8637) A modport ('SMON_MP') should not be used in a hierarchical path.
#    Time: 0 ns  Iteration: 0  Region: /axi_spkg::axi_smon #(32, 32) File: ../ENV/AXI_S_AGENT/axi_smon.svh Line: 100
# ** Warning: (vsim-8637) A modport ('SMON_MP') should not be used in a hierarchical path.
#    Time: 0 ns  Iteration: 0  Region: /axi_spkg::axi_smon #(32, 32) File: ../ENV/AXI_S_AGENT/axi_smon.svh Line: 125
# ** Warning: (vsim-8386) Illegal assignment to type 'enum bit[1:0] axi_spkg::axi_resp_se' from type 'reg[1:0]': An enum variable may only be assigned the same enum typed variable or one of its values.
#    Time: 0 ns  Iteration: 0  Region: /axi_spkg::axi_smon #(32, 32) File: ../ENV/AXI_S_AGENT/axi_smon.svh Line: 181
# ** Warning: (vsim-8637) A modport ('MDRV_MP') should not be used in a hierarchical path.
#    Time: 0 ns  Iteration: 0  Region: /axi_mpkg::axi_mdrv #(32, 32) File: ../ENV/AXI_M_AGENT/axi_mdrv.svh Line: 111
# ** Warning: (vsim-8637) A modport ('MDRV_MP') should not be used in a hierarchical path.
#    Time: 0 ns  Iteration: 0  Region: /axi_mpkg::axi_mdrv #(32, 32) File: ../ENV/AXI_M_AGENT/axi_mdrv.svh Line: 118
# ** Warning: (vsim-8637) A modport ('MDRV_MP') should not be used in a hierarchical path.
#    Time: 0 ns  Iteration: 0  Region: /axi_mpkg::axi_mdrv #(32, 32) File: ../ENV/AXI_M_AGENT/axi_mdrv.svh Line: 147
# ** Warning: (vsim-8637) A modport ('MDRV_MP') should not be used in a hierarchical path.
#    Time: 0 ns  Iteration: 0  Region: /axi_mpkg::axi_mdrv #(32, 32) File: ../ENV/AXI_M_AGENT/axi_mdrv.svh Line: 154
# ** Warning: (vsim-8637) A modport ('MDRV_MP') should not be used in a hierarchical path.
#    Time: 0 ns  Iteration: 0  Region: /axi_mpkg::axi_mdrv #(32, 32) File: ../ENV/AXI_M_AGENT/axi_mdrv.svh Line: 180
# ** Warning: (vsim-8637) A modport ('MDRV_MP') should not be used in a hierarchical path.
#    Time: 0 ns  Iteration: 0  Region: /axi_mpkg::axi_mdrv #(32, 32) File: ../ENV/AXI_M_AGENT/axi_mdrv.svh Line: 189
# ** Warning: (vsim-8637) A modport ('MDRV_MP') should not be used in a hierarchical path.
#    Time: 0 ns  Iteration: 0  Region: /axi_mpkg::axi_mdrv #(32, 32) File: ../ENV/AXI_M_AGENT/axi_mdrv.svh Line: 190
# ** Warning: (vsim-8637) A modport ('MDRV_MP') should not be used in a hierarchical path.
#    Time: 0 ns  Iteration: 0  Region: /axi_mpkg::axi_mdrv #(32, 32) File: ../ENV/AXI_M_AGENT/axi_mdrv.svh Line: 211
# ** Warning: (vsim-8637) A modport ('MDRV_MP') should not be used in a hierarchical path.
#    Time: 0 ns  Iteration: 0  Region: /axi_mpkg::axi_mdrv #(32, 32) File: ../ENV/AXI_M_AGENT/axi_mdrv.svh Line: 233
# ** Warning: (vsim-8637) A modport ('MDRV_MP') should not be used in a hierarchical path.
#    Time: 0 ns  Iteration: 0  Region: /axi_mpkg::axi_mdrv #(32, 32) File: ../ENV/AXI_M_AGENT/axi_mdrv.svh Line: 239
# ** Warning: (vsim-8386) Illegal assignment to type 'enum bit[1:0] axi_mpkg::axi_resp_me' from type 'reg[1:0]': An enum variable may only be assigned the same enum typed variable or one of its values.
#    Time: 0 ns  Iteration: 0  Region: /axi_mpkg::axi_mdrv #(32, 32) File: ../ENV/AXI_M_AGENT/axi_mdrv.svh Line: 217
# ** Warning: (vsim-8637) A modport ('MMON_MP') should not be used in a hierarchical path.
#    Time: 0 ns  Iteration: 0  Region: /axi_mpkg::axi_mmon #(32, 32) File: ../ENV/AXI_M_AGENT/axi_mmon.svh Line: 69
# ** Warning: (vsim-8637) A modport ('MMON_MP') should not be used in a hierarchical path.
#    Time: 0 ns  Iteration: 0  Region: /axi_mpkg::axi_mmon #(32, 32) File: ../ENV/AXI_M_AGENT/axi_mmon.svh Line: 78
# ** Warning: (vsim-8637) A modport ('MMON_MP') should not be used in a hierarchical path.
#    Time: 0 ns  Iteration: 0  Region: /axi_mpkg::axi_mmon #(32, 32) File: ../ENV/AXI_M_AGENT/axi_mmon.svh Line: 99
# ** Warning: (vsim-8637) A modport ('MMON_MP') should not be used in a hierarchical path.
#    Time: 0 ns  Iteration: 0  Region: /axi_mpkg::axi_mmon #(32, 32) File: ../ENV/AXI_M_AGENT/axi_mmon.svh Line: 107
# ** Warning: (vsim-8637) A modport ('MMON_MP') should not be used in a hierarchical path.
#    Time: 0 ns  Iteration: 0  Region: /axi_mpkg::axi_mmon #(32, 32) File: ../ENV/AXI_M_AGENT/axi_mmon.svh Line: 125
# ** Warning: (vsim-8637) A modport ('MMON_MP') should not be used in a hierarchical path.
#    Time: 0 ns  Iteration: 0  Region: /axi_mpkg::axi_mmon #(32, 32) File: ../ENV/AXI_M_AGENT/axi_mmon.svh Line: 132
# ** Warning: (vsim-8637) A modport ('MMON_MP') should not be used in a hierarchical path.
#    Time: 0 ns  Iteration: 0  Region: /axi_mpkg::axi_mmon #(32, 32) File: ../ENV/AXI_M_AGENT/axi_mmon.svh Line: 133
# ** Warning: (vsim-8637) A modport ('MMON_MP') should not be used in a hierarchical path.
#    Time: 0 ns  Iteration: 0  Region: /axi_mpkg::axi_mmon #(32, 32) File: ../ENV/AXI_M_AGENT/axi_mmon.svh Line: 152
# ** Warning: (vsim-8637) A modport ('MMON_MP') should not be used in a hierarchical path.
#    Time: 0 ns  Iteration: 0  Region: /axi_mpkg::axi_mmon #(32, 32) File: ../ENV/AXI_M_AGENT/axi_mmon.svh Line: 159
# ** Warning: (vsim-8637) A modport ('MMON_MP') should not be used in a hierarchical path.
#    Time: 0 ns  Iteration: 0  Region: /axi_mpkg::axi_mmon #(32, 32) File: ../ENV/AXI_M_AGENT/axi_mmon.svh Line: 160
# ** Warning: (vsim-8637) A modport ('MMON_MP') should not be used in a hierarchical path.
#    Time: 0 ns  Iteration: 0  Region: /axi_mpkg::axi_mmon #(32, 32) File: ../ENV/AXI_M_AGENT/axi_mmon.svh Line: 179
# ** Warning: (vsim-8637) A modport ('MMON_MP') should not be used in a hierarchical path.
#    Time: 0 ns  Iteration: 0  Region: /axi_mpkg::axi_mmon #(32, 32) File: ../ENV/AXI_M_AGENT/axi_mmon.svh Line: 198
# ** Warning: (vsim-8637) A modport ('MMON_MP') should not be used in a hierarchical path.
#    Time: 0 ns  Iteration: 0  Region: /axi_mpkg::axi_mmon #(32, 32) File: ../ENV/AXI_M_AGENT/axi_mmon.svh Line: 203
# ** Warning: (vsim-8637) A modport ('MMON_MP') should not be used in a hierarchical path.
#    Time: 0 ns  Iteration: 0  Region: /axi_mpkg::axi_mmon #(32, 32) File: ../ENV/AXI_M_AGENT/axi_mmon.svh Line: 73
# ** Warning: (vsim-8386) Illegal assignment to type 'enum bit[2:0] axi_mpkg::axi_size_me' from type 'reg[2:0]': An enum variable may only be assigned the same enum typed variable or one of its values.
#    Time: 0 ns  Iteration: 0  Region: /axi_mpkg::axi_mmon #(32, 32) File: ../ENV/AXI_M_AGENT/axi_mmon.svh Line: 80
# ** Warning: (vsim-8386) Illegal assignment to type 'enum bit[1:0] axi_mpkg::axi_burst_me' from type 'reg[1:0]': An enum variable may only be assigned the same enum typed variable or one of its values.
#    Time: 0 ns  Iteration: 0  Region: /axi_mpkg::axi_mmon #(32, 32) File: ../ENV/AXI_M_AGENT/axi_mmon.svh Line: 81
# ** Warning: (vsim-8637) A modport ('MMON_MP') should not be used in a hierarchical path.
#    Time: 0 ns  Iteration: 0  Region: /axi_mpkg::axi_mmon #(32, 32) File: ../ENV/AXI_M_AGENT/axi_mmon.svh Line: 103
# ** Warning: (vsim-8637) A modport ('MMON_MP') should not be used in a hierarchical path.
#    Time: 0 ns  Iteration: 0  Region: /axi_mpkg::axi_mmon #(32, 32) File: ../ENV/AXI_M_AGENT/axi_mmon.svh Line: 128
# ** Warning: (vsim-8386) Illegal assignment to type 'enum bit[1:0] axi_mpkg::axi_resp_me' from type 'reg[1:0]': An enum variable may only be assigned the same enum typed variable or one of its values.
#    Time: 0 ns  Iteration: 0  Region: /axi_mpkg::axi_mmon #(32, 32) File: ../ENV/AXI_M_AGENT/axi_mmon.svh Line: 183
# ** Warning: (vsim-8637) A modport ('SDRV_MP') should not be used in a hierarchical path.
#    Time: 0 ns  Iteration: 0  Region: /axi_spkg::axi_sdrv #(32, 32) File: ../ENV/AXI_S_AGENT/axi_sdrv.svh Line: 147
# ** Warning: (vsim-8637) A modport ('SDRV_MP') should not be used in a hierarchical path.
#    Time: 0 ns  Iteration: 0  Region: /axi_spkg::axi_sdrv #(32, 32) File: ../ENV/AXI_S_AGENT/axi_sdrv.svh Line: 146
# ** Warning: (vsim-8637) A modport ('SDRV_MP') should not be used in a hierarchical path.
#    Time: 0 ns  Iteration: 0  Region: /axi_spkg::axi_sdrv #(32, 32) File: ../ENV/AXI_S_AGENT/axi_sdrv.svh Line: 143
# ** Warning: (vsim-8637) A modport ('SDRV_MP') should not be used in a hierarchical path.
#    Time: 0 ns  Iteration: 0  Region: /axi_spkg::axi_sdrv #(32, 32) File: ../ENV/AXI_S_AGENT/axi_sdrv.svh Line: 142
# ** Warning: (vsim-8637) A modport ('SDRV_MP') should not be used in a hierarchical path.
#    Time: 0 ns  Iteration: 0  Region: /axi_spkg::axi_sdrv #(32, 32) File: ../ENV/AXI_S_AGENT/axi_sdrv.svh Line: 139
# ** Warning: (vsim-8637) A modport ('SDRV_MP') should not be used in a hierarchical path.
#    Time: 0 ns  Iteration: 0  Region: /axi_spkg::axi_sdrv #(32, 32) File: ../ENV/AXI_S_AGENT/axi_sdrv.svh Line: 128
# ** Warning: (vsim-8637) A modport ('SDRV_MP') should not be used in a hierarchical path.
#    Time: 0 ns  Iteration: 0  Region: /axi_spkg::axi_sdrv #(32, 32) File: ../ENV/AXI_S_AGENT/axi_sdrv.svh Line: 127
# ** Warning: (vsim-8637) A modport ('SDRV_MP') should not be used in a hierarchical path.
#    Time: 0 ns  Iteration: 0  Region: /axi_spkg::axi_sdrv #(32, 32) File: ../ENV/AXI_S_AGENT/axi_sdrv.svh Line: 110
# ** Warning: (vsim-8637) A modport ('SDRV_MP') should not be used in a hierarchical path.
#    Time: 0 ns  Iteration: 0  Region: /axi_spkg::axi_sdrv #(32, 32) File: ../ENV/AXI_S_AGENT/axi_sdrv.svh Line: 109
# ** Warning: (vsim-8637) A modport ('SDRV_MP') should not be used in a hierarchical path.
#    Time: 0 ns  Iteration: 0  Region: /axi_spkg::axi_sdrv #(32, 32) File: ../ENV/AXI_S_AGENT/axi_sdrv.svh Line: 106
# ** Warning: (vsim-8637) A modport ('SDRV_MP') should not be used in a hierarchical path.
#    Time: 0 ns  Iteration: 0  Region: /axi_spkg::axi_sdrv #(32, 32) File: ../ENV/AXI_S_AGENT/axi_sdrv.svh Line: 105
# ** Warning: (vsim-8441) Clocking block output svif.SDRV_MP.sdrv_cb.bvalid is not legal in this
# or another expression.
#    Time: 0 ns  Iteration: 0  Region: /axi_spkg::axi_sdrv #(32, 32) File: ../ENV/AXI_S_AGENT/axi_sdrv.svh Line: 105
# ** Warning: (vsim-8637) A modport ('SDRV_MP') should not be used in a hierarchical path.
#    Time: 0 ns  Iteration: 0  Region: /axi_spkg::axi_sdrv #(32, 32) File: ../ENV/AXI_S_AGENT/axi_sdrv.svh Line: 88
# ** Warning: (vsim-8637) A modport ('SDRV_MP') should not be used in a hierarchical path.
#    Time: 0 ns  Iteration: 0  Region: /axi_spkg::axi_sdrv #(32, 32) File: ../ENV/AXI_S_AGENT/axi_sdrv.svh Line: 87
# ** Warning: (vsim-8637) A modport ('SDRV_MP') should not be used in a hierarchical path.
#    Time: 0 ns  Iteration: 0  Region: /axi_spkg::axi_sdrv #(32, 32) File: ../ENV/AXI_S_AGENT/axi_sdrv.svh Line: 80
# ** Warning: (vsim-8637) A modport ('SDRV_MP') should not be used in a hierarchical path.
#    Time: 0 ns  Iteration: 0  Region: /axi_spkg::axi_sdrv #(32, 32) File: ../ENV/AXI_S_AGENT/axi_sdrv.svh Line: 71
# ** Warning: (vsim-8637) A modport ('SMON_MP') should not be used in a hierarchical path.
#    Time: 0 ns  Iteration: 0  Region: /axi_spkg::axi_smon #(32, 32) File: ../ENV/AXI_S_AGENT/axi_smon.svh Line: 204
# ** Warning: (vsim-8637) A modport ('SMON_MP') should not be used in a hierarchical path.
#    Time: 0 ns  Iteration: 0  Region: /axi_spkg::axi_smon #(32, 32) File: ../ENV/AXI_S_AGENT/axi_smon.svh Line: 201
# ** Warning: (vsim-8637) A modport ('SMON_MP') should not be used in a hierarchical path.
#    Time: 0 ns  Iteration: 0  Region: /axi_spkg::axi_smon #(32, 32) File: ../ENV/AXI_S_AGENT/axi_smon.svh Line: 200
# ** Warning: (vsim-8637) A modport ('SMON_MP') should not be used in a hierarchical path.
#    Time: 0 ns  Iteration: 0  Region: /axi_spkg::axi_smon #(32, 32) File: ../ENV/AXI_S_AGENT/axi_smon.svh Line: 198
# ** Warning: (vsim-8637) A modport ('SMON_MP') should not be used in a hierarchical path.
#    Time: 0 ns  Iteration: 0  Region: /axi_spkg::axi_smon #(32, 32) File: ../ENV/AXI_S_AGENT/axi_smon.svh Line: 198
# ** Warning: (vsim-8637) A modport ('SMON_MP') should not be used in a hierarchical path.
#    Time: 0 ns  Iteration: 0  Region: /axi_spkg::axi_smon #(32, 32) File: ../ENV/AXI_S_AGENT/axi_smon.svh Line: 181
# ** Warning: (vsim-8637) A modport ('SMON_MP') should not be used in a hierarchical path.
#    Time: 0 ns  Iteration: 0  Region: /axi_spkg::axi_smon #(32, 32) File: ../ENV/AXI_S_AGENT/axi_smon.svh Line: 180
# ** Warning: (vsim-8637) A modport ('SMON_MP') should not be used in a hierarchical path.
#    Time: 0 ns  Iteration: 0  Region: /axi_spkg::axi_smon #(32, 32) File: ../ENV/AXI_S_AGENT/axi_smon.svh Line: 178
# ** Warning: (vsim-8637) A modport ('SMON_MP') should not be used in a hierarchical path.
#    Time: 0 ns  Iteration: 0  Region: /axi_spkg::axi_smon #(32, 32) File: ../ENV/AXI_S_AGENT/axi_smon.svh Line: 178
# ** Warning: (vsim-8637) A modport ('SMON_MP') should not be used in a hierarchical path.
#    Time: 0 ns  Iteration: 0  Region: /axi_spkg::axi_smon #(32, 32) File: ../ENV/AXI_S_AGENT/axi_smon.svh Line: 159
# ** Warning: (vsim-8637) A modport ('SMON_MP') should not be used in a hierarchical path.
#    Time: 0 ns  Iteration: 0  Region: /axi_spkg::axi_smon #(32, 32) File: ../ENV/AXI_S_AGENT/axi_smon.svh Line: 150
# ** Warning: (vsim-8637) A modport ('SMON_MP') should not be used in a hierarchical path.
#    Time: 0 ns  Iteration: 0  Region: /axi_spkg::axi_smon #(32, 32) File: ../ENV/AXI_S_AGENT/axi_smon.svh Line: 150
# ** Warning: (vsim-8637) A modport ('SMON_MP') should not be used in a hierarchical path.
#    Time: 0 ns  Iteration: 0  Region: /axi_spkg::axi_smon #(32, 32) File: ../ENV/AXI_S_AGENT/axi_smon.svh Line: 132
# ** Warning: (vsim-8637) A modport ('SMON_MP') should not be used in a hierarchical path.
#    Time: 0 ns  Iteration: 0  Region: /axi_spkg::axi_smon #(32, 32) File: ../ENV/AXI_S_AGENT/axi_smon.svh Line: 123
# ** Warning: (vsim-8637) A modport ('SMON_MP') should not be used in a hierarchical path.
#    Time: 0 ns  Iteration: 0  Region: /axi_spkg::axi_smon #(32, 32) File: ../ENV/AXI_S_AGENT/axi_smon.svh Line: 123
# ** Warning: (vsim-8637) A modport ('SMON_MP') should not be used in a hierarchical path.
#    Time: 0 ns  Iteration: 0  Region: /axi_spkg::axi_smon #(32, 32) File: ../ENV/AXI_S_AGENT/axi_smon.svh Line: 107
# ** Warning: (vsim-8637) A modport ('SMON_MP') should not be used in a hierarchical path.
#    Time: 0 ns  Iteration: 0  Region: /axi_spkg::axi_smon #(32, 32) File: ../ENV/AXI_S_AGENT/axi_smon.svh Line: 106
# ** Warning: (vsim-8637) A modport ('SMON_MP') should not be used in a hierarchical path.
#    Time: 0 ns  Iteration: 0  Region: /axi_spkg::axi_smon #(32, 32) File: ../ENV/AXI_S_AGENT/axi_smon.svh Line: 105
# ** Warning: (vsim-8637) A modport ('SMON_MP') should not be used in a hierarchical path.
#    Time: 0 ns  Iteration: 0  Region: /axi_spkg::axi_smon #(32, 32) File: ../ENV/AXI_S_AGENT/axi_smon.svh Line: 98
# ** Warning: (vsim-8637) A modport ('SMON_MP') should not be used in a hierarchical path.
#    Time: 0 ns  Iteration: 0  Region: /axi_spkg::axi_smon #(32, 32) File: ../ENV/AXI_S_AGENT/axi_smon.svh Line: 98
# ** Warning: (vsim-8637) A modport ('SMON_MP') should not be used in a hierarchical path.
#    Time: 0 ns  Iteration: 0  Region: /axi_spkg::axi_smon #(32, 32) File: ../ENV/AXI_S_AGENT/axi_smon.svh Line: 78
# ** Warning: (vsim-8637) A modport ('SMON_MP') should not be used in a hierarchical path.
#    Time: 0 ns  Iteration: 0  Region: /axi_spkg::axi_smon #(32, 32) File: ../ENV/AXI_S_AGENT/axi_smon.svh Line: 77
# ** Warning: (vsim-8637) A modport ('SMON_MP') should not be used in a hierarchical path.
#    Time: 0 ns  Iteration: 0  Region: /axi_spkg::axi_smon #(32, 32) File: ../ENV/AXI_S_AGENT/axi_smon.svh Line: 76
# ** Warning: (vsim-8637) A modport ('SMON_MP') should not be used in a hierarchical path.
#    Time: 0 ns  Iteration: 0  Region: /axi_spkg::axi_smon #(32, 32) File: ../ENV/AXI_S_AGENT/axi_smon.svh Line: 68
# ** Warning: (vsim-8637) A modport ('SMON_MP') should not be used in a hierarchical path.
#    Time: 0 ns  Iteration: 0  Region: /axi_spkg::axi_smon #(32, 32) File: ../ENV/AXI_S_AGENT/axi_smon.svh Line: 68
# ** Warning: (vsim-8637) A modport ('MDRV_MP') should not be used in a hierarchical path.
#    Time: 0 ns  Iteration: 0  Region: /axi_mpkg::axi_mdrv #(32, 32) File: ../ENV/AXI_M_AGENT/axi_mdrv.svh Line: 241
# ** Warning: (vsim-8637) A modport ('MDRV_MP') should not be used in a hierarchical path.
#    Time: 0 ns  Iteration: 0  Region: /axi_mpkg::axi_mdrv #(32, 32) File: ../ENV/AXI_M_AGENT/axi_mdrv.svh Line: 238
# ** Warning: (vsim-8637) A modport ('MDRV_MP') should not be used in a hierarchical path.
#    Time: 0 ns  Iteration: 0  Region: /axi_mpkg::axi_mdrv #(32, 32) File: ../ENV/AXI_M_AGENT/axi_mdrv.svh Line: 237
# ** Warning: (vsim-8637) A modport ('MDRV_MP') should not be used in a hierarchical path.
#    Time: 0 ns  Iteration: 0  Region: /axi_mpkg::axi_mdrv #(32, 32) File: ../ENV/AXI_M_AGENT/axi_mdrv.svh Line: 235
# ** Warning: (vsim-8637) A modport ('MDRV_MP') should not be used in a hierarchical path.
#    Time: 0 ns  Iteration: 0  Region: /axi_mpkg::axi_mdrv #(32, 32) File: ../ENV/AXI_M_AGENT/axi_mdrv.svh Line: 230
# ** Warning: (vsim-8441) Clocking block output mvif.MDRV_MP.mdrv_cb.rready is not legal in this
# or another expression.
#    Time: 0 ns  Iteration: 0  Region: /axi_mpkg::axi_mdrv #(32, 32) File: ../ENV/AXI_M_AGENT/axi_mdrv.svh Line: 230
# ** Warning: (vsim-8637) A modport ('MDRV_MP') should not be used in a hierarchical path.
#    Time: 0 ns  Iteration: 0  Region: /axi_mpkg::axi_mdrv #(32, 32) File: ../ENV/AXI_M_AGENT/axi_mdrv.svh Line: 229
# ** Warning: (vsim-8637) A modport ('MDRV_MP') should not be used in a hierarchical path.
#    Time: 0 ns  Iteration: 0  Region: /axi_mpkg::axi_mdrv #(32, 32) File: ../ENV/AXI_M_AGENT/axi_mdrv.svh Line: 217
# ** Warning: (vsim-8637) A modport ('MDRV_MP') should not be used in a hierarchical path.
#    Time: 0 ns  Iteration: 0  Region: /axi_mpkg::axi_mdrv #(32, 32) File: ../ENV/AXI_M_AGENT/axi_mdrv.svh Line: 216
# ** Warning: (vsim-8637) A modport ('MDRV_MP') should not be used in a hierarchical path.
#    Time: 0 ns  Iteration: 0  Region: /axi_mpkg::axi_mdrv #(32, 32) File: ../ENV/AXI_M_AGENT/axi_mdrv.svh Line: 214
# ** Warning: (vsim-8637) A modport ('MDRV_MP') should not be used in a hierarchical path.
#    Time: 0 ns  Iteration: 0  Region: /axi_mpkg::axi_mdrv #(32, 32) File: ../ENV/AXI_M_AGENT/axi_mdrv.svh Line: 212
# ** Warning: (vsim-8441) Clocking block output mvif.MDRV_MP.mdrv_cb.bready is not legal in this
# or another expression.
#    Time: 0 ns  Iteration: 0  Region: /axi_mpkg::axi_mdrv #(32, 32) File: ../ENV/AXI_M_AGENT/axi_mdrv.svh Line: 212
# ** Warning: (vsim-8637) A modport ('MDRV_MP') should not be used in a hierarchical path.
#    Time: 0 ns  Iteration: 0  Region: /axi_mpkg::axi_mdrv #(32, 32) File: ../ENV/AXI_M_AGENT/axi_mdrv.svh Line: 212
# ** Warning: (vsim-8637) A modport ('MDRV_MP') should not be used in a hierarchical path.
#    Time: 0 ns  Iteration: 0  Region: /axi_mpkg::axi_mdrv #(32, 32) File: ../ENV/AXI_M_AGENT/axi_mdrv.svh Line: 192
# ** Warning: (vsim-8637) A modport ('MDRV_MP') should not be used in a hierarchical path.
#    Time: 0 ns  Iteration: 0  Region: /axi_mpkg::axi_mdrv #(32, 32) File: ../ENV/AXI_M_AGENT/axi_mdrv.svh Line: 186
# ** Warning: (vsim-8637) A modport ('MDRV_MP') should not be used in a hierarchical path.
#    Time: 0 ns  Iteration: 0  Region: /axi_mpkg::axi_mdrv #(32, 32) File: ../ENV/AXI_M_AGENT/axi_mdrv.svh Line: 185
# ** Warning: (vsim-8637) A modport ('MDRV_MP') should not be used in a hierarchical path.
#    Time: 0 ns  Iteration: 0  Region: /axi_mpkg::axi_mdrv #(32, 32) File: ../ENV/AXI_M_AGENT/axi_mdrv.svh Line: 184
# ** Warning: (vsim-8441) Clocking block output mvif.MDRV_MP.mdrv_cb.wvalid is not legal in this
# or another expression.
#    Time: 0 ns  Iteration: 0  Region: /axi_mpkg::axi_mdrv #(32, 32) File: ../ENV/AXI_M_AGENT/axi_mdrv.svh Line: 184
# ** Warning: (vsim-8637) A modport ('MDRV_MP') should not be used in a hierarchical path.
#    Time: 0 ns  Iteration: 0  Region: /axi_mpkg::axi_mdrv #(32, 32) File: ../ENV/AXI_M_AGENT/axi_mdrv.svh Line: 157
# ** Warning: (vsim-8637) A modport ('MDRV_MP') should not be used in a hierarchical path.
#    Time: 0 ns  Iteration: 0  Region: /axi_mpkg::axi_mdrv #(32, 32) File: ../ENV/AXI_M_AGENT/axi_mdrv.svh Line: 156
# ** Warning: (vsim-8637) A modport ('MDRV_MP') should not be used in a hierarchical path.
#    Time: 0 ns  Iteration: 0  Region: /axi_mpkg::axi_mdrv #(32, 32) File: ../ENV/AXI_M_AGENT/axi_mdrv.svh Line: 155
# ** Warning: (vsim-8637) A modport ('MDRV_MP') should not be used in a hierarchical path.
#    Time: 0 ns  Iteration: 0  Region: /axi_mpkg::axi_mdrv #(32, 32) File: ../ENV/AXI_M_AGENT/axi_mdrv.svh Line: 153
# ** Warning: (vsim-8637) A modport ('MDRV_MP') should not be used in a hierarchical path.
#    Time: 0 ns  Iteration: 0  Region: /axi_mpkg::axi_mdrv #(32, 32) File: ../ENV/AXI_M_AGENT/axi_mdrv.svh Line: 150
# ** Warning: (vsim-8637) A modport ('MDRV_MP') should not be used in a hierarchical path.
#    Time: 0 ns  Iteration: 0  Region: /axi_mpkg::axi_mdrv #(32, 32) File: ../ENV/AXI_M_AGENT/axi_mdrv.svh Line: 149
# ** Warning: (vsim-8441) Clocking block output mvif.MDRV_MP.mdrv_cb.arvalid is not legal in this
# or another expression.
#    Time: 0 ns  Iteration: 0  Region: /axi_mpkg::axi_mdrv #(32, 32) File: ../ENV/AXI_M_AGENT/axi_mdrv.svh Line: 149
# ** Warning: (vsim-8637) A modport ('MDRV_MP') should not be used in a hierarchical path.
#    Time: 0 ns  Iteration: 0  Region: /axi_mpkg::axi_mdrv #(32, 32) File: ../ENV/AXI_M_AGENT/axi_mdrv.svh Line: 121
# ** Warning: (vsim-8637) A modport ('MDRV_MP') should not be used in a hierarchical path.
#    Time: 0 ns  Iteration: 0  Region: /axi_mpkg::axi_mdrv #(32, 32) File: ../ENV/AXI_M_AGENT/axi_mdrv.svh Line: 120
# ** Warning: (vsim-8637) A modport ('MDRV_MP') should not be used in a hierarchical path.
#    Time: 0 ns  Iteration: 0  Region: /axi_mpkg::axi_mdrv #(32, 32) File: ../ENV/AXI_M_AGENT/axi_mdrv.svh Line: 119
# ** Warning: (vsim-8637) A modport ('MDRV_MP') should not be used in a hierarchical path.
#    Time: 0 ns  Iteration: 0  Region: /axi_mpkg::axi_mdrv #(32, 32) File: ../ENV/AXI_M_AGENT/axi_mdrv.svh Line: 117
# ** Warning: (vsim-8637) A modport ('MDRV_MP') should not be used in a hierarchical path.
#    Time: 0 ns  Iteration: 0  Region: /axi_mpkg::axi_mdrv #(32, 32) File: ../ENV/AXI_M_AGENT/axi_mdrv.svh Line: 114
# ** Warning: (vsim-8637) A modport ('MDRV_MP') should not be used in a hierarchical path.
#    Time: 0 ns  Iteration: 0  Region: /axi_mpkg::axi_mdrv #(32, 32) File: ../ENV/AXI_M_AGENT/axi_mdrv.svh Line: 113
# ** Warning: (vsim-8441) Clocking block output mvif.MDRV_MP.mdrv_cb.awvalid is not legal in this
# or another expression.
#    Time: 0 ns  Iteration: 0  Region: /axi_mpkg::axi_mdrv #(32, 32) File: ../ENV/AXI_M_AGENT/axi_mdrv.svh Line: 113
# ** Warning: (vsim-8637) A modport ('MMON_MP') should not be used in a hierarchical path.
#    Time: 0 ns  Iteration: 0  Region: /axi_mpkg::axi_mmon #(32, 32) File: ../ENV/AXI_M_AGENT/axi_mmon.svh Line: 205
# ** Warning: (vsim-8637) A modport ('MMON_MP') should not be used in a hierarchical path.
#    Time: 0 ns  Iteration: 0  Region: /axi_mpkg::axi_mmon #(32, 32) File: ../ENV/AXI_M_AGENT/axi_mmon.svh Line: 202
# ** Warning: (vsim-8637) A modport ('MMON_MP') should not be used in a hierarchical path.
#    Time: 0 ns  Iteration: 0  Region: /axi_mpkg::axi_mmon #(32, 32) File: ../ENV/AXI_M_AGENT/axi_mmon.svh Line: 202
# ** Warning: (vsim-8637) A modport ('MMON_MP') should not be used in a hierarchical path.
#    Time: 0 ns  Iteration: 0  Region: /axi_mpkg::axi_mmon #(32, 32) File: ../ENV/AXI_M_AGENT/axi_mmon.svh Line: 200
# ** Warning: (vsim-8637) A modport ('MMON_MP') should not be used in a hierarchical path.
#    Time: 0 ns  Iteration: 0  Region: /axi_mpkg::axi_mmon #(32, 32) File: ../ENV/AXI_M_AGENT/axi_mmon.svh Line: 200
# ** Warning: (vsim-8637) A modport ('MMON_MP') should not be used in a hierarchical path.
#    Time: 0 ns  Iteration: 0  Region: /axi_mpkg::axi_mmon #(32, 32) File: ../ENV/AXI_M_AGENT/axi_mmon.svh Line: 183
# ** Warning: (vsim-8637) A modport ('MMON_MP') should not be used in a hierarchical path.
#    Time: 0 ns  Iteration: 0  Region: /axi_mpkg::axi_mmon #(32, 32) File: ../ENV/AXI_M_AGENT/axi_mmon.svh Line: 182
# ** Warning: (vsim-8637) A modport ('MMON_MP') should not be used in a hierarchical path.
#    Time: 0 ns  Iteration: 0  Region: /axi_mpkg::axi_mmon #(32, 32) File: ../ENV/AXI_M_AGENT/axi_mmon.svh Line: 180
# ** Warning: (vsim-8637) A modport ('MMON_MP') should not be used in a hierarchical path.
#    Time: 0 ns  Iteration: 0  Region: /axi_mpkg::axi_mmon #(32, 32) File: ../ENV/AXI_M_AGENT/axi_mmon.svh Line: 180
# ** Warning: (vsim-8637) A modport ('MMON_MP') should not be used in a hierarchical path.
#    Time: 0 ns  Iteration: 0  Region: /axi_mpkg::axi_mmon #(32, 32) File: ../ENV/AXI_M_AGENT/axi_mmon.svh Line: 162
# ** Warning: (vsim-8637) A modport ('MMON_MP') should not be used in a hierarchical path.
#    Time: 0 ns  Iteration: 0  Region: /axi_mpkg::axi_mmon #(32, 32) File: ../ENV/AXI_M_AGENT/axi_mmon.svh Line: 153
# ** Warning: (vsim-8637) A modport ('MMON_MP') should not be used in a hierarchical path.
#    Time: 0 ns  Iteration: 0  Region: /axi_mpkg::axi_mmon #(32, 32) File: ../ENV/AXI_M_AGENT/axi_mmon.svh Line: 153
# ** Warning: (vsim-8637) A modport ('MMON_MP') should not be used in a hierarchical path.
#    Time: 0 ns  Iteration: 0  Region: /axi_mpkg::axi_mmon #(32, 32) File: ../ENV/AXI_M_AGENT/axi_mmon.svh Line: 135
# ** Warning: (vsim-8637) A modport ('MMON_MP') should not be used in a hierarchical path.
#    Time: 0 ns  Iteration: 0  Region: /axi_mpkg::axi_mmon #(32, 32) File: ../ENV/AXI_M_AGENT/axi_mmon.svh Line: 126
# ** Warning: (vsim-8637) A modport ('MMON_MP') should not be used in a hierarchical path.
#    Time: 0 ns  Iteration: 0  Region: /axi_mpkg::axi_mmon #(32, 32) File: ../ENV/AXI_M_AGENT/axi_mmon.svh Line: 126
# ** Warning: (vsim-8637) A modport ('MMON_MP') should not be used in a hierarchical path.
#    Time: 0 ns  Iteration: 0  Region: /axi_mpkg::axi_mmon #(32, 32) File: ../ENV/AXI_M_AGENT/axi_mmon.svh Line: 110
# ** Warning: (vsim-8637) A modport ('MMON_MP') should not be used in a hierarchical path.
#    Time: 0 ns  Iteration: 0  Region: /axi_mpkg::axi_mmon #(32, 32) File: ../ENV/AXI_M_AGENT/axi_mmon.svh Line: 109
# ** Warning: (vsim-8637) A modport ('MMON_MP') should not be used in a hierarchical path.
#    Time: 0 ns  Iteration: 0  Region: /axi_mpkg::axi_mmon #(32, 32) File: ../ENV/AXI_M_AGENT/axi_mmon.svh Line: 108
# ** Warning: (vsim-8637) A modport ('MMON_MP') should not be used in a hierarchical path.
#    Time: 0 ns  Iteration: 0  Region: /axi_mpkg::axi_mmon #(32, 32) File: ../ENV/AXI_M_AGENT/axi_mmon.svh Line: 101
# ** Warning: (vsim-8637) A modport ('MMON_MP') should not be used in a hierarchical path.
#    Time: 0 ns  Iteration: 0  Region: /axi_mpkg::axi_mmon #(32, 32) File: ../ENV/AXI_M_AGENT/axi_mmon.svh Line: 101
# ** Warning: (vsim-8637) A modport ('MMON_MP') should not be used in a hierarchical path.
#    Time: 0 ns  Iteration: 0  Region: /axi_mpkg::axi_mmon #(32, 32) File: ../ENV/AXI_M_AGENT/axi_mmon.svh Line: 81
# ** Warning: (vsim-8637) A modport ('MMON_MP') should not be used in a hierarchical path.
#    Time: 0 ns  Iteration: 0  Region: /axi_mpkg::axi_mmon #(32, 32) File: ../ENV/AXI_M_AGENT/axi_mmon.svh Line: 80
# ** Warning: (vsim-8637) A modport ('MMON_MP') should not be used in a hierarchical path.
#    Time: 0 ns  Iteration: 0  Region: /axi_mpkg::axi_mmon #(32, 32) File: ../ENV/AXI_M_AGENT/axi_mmon.svh Line: 79
# ** Warning: (vsim-8637) A modport ('MMON_MP') should not be used in a hierarchical path.
#    Time: 0 ns  Iteration: 0  Region: /axi_mpkg::axi_mmon #(32, 32) File: ../ENV/AXI_M_AGENT/axi_mmon.svh Line: 71
# ** Warning: (vsim-8637) A modport ('MMON_MP') should not be used in a hierarchical path.
#    Time: 0 ns  Iteration: 0  Region: /axi_mpkg::axi_mmon #(32, 32) File: ../ENV/AXI_M_AGENT/axi_mmon.svh Line: 71
# Loading /tools/mentor/questa/2023.4/questasim/uvm-1.1d/linux_x86_64/uvm_dpi.so
# run -all
# ----------------------------------------------------------------
# UVM-1.1d
# (C) 2007-2013 Mentor Graphics Corporation
# (C) 2007-2013 Cadence Design Systems, Inc.
# (C) 2006-2013 Synopsys, Inc.
# (C) 2011-2013 Cypress Semiconductor Corp.
# ----------------------------------------------------------------
# 
#   ***********       IMPORTANT RELEASE NOTES         ************
# 
#   You are using a version of the UVM library that has been compiled
#   with `UVM_NO_DEPRECATED undefined.
#   See http://www.eda.org/svdb/view.php?id=3313 for more details.
# 
#   You are using a version of the UVM library that has been compiled
#   with `UVM_OBJECT_MUST_HAVE_CONSTRUCTOR undefined.
#   See http://www.eda.org/svdb/view.php?id=3770 for more details.
# 
#       (Specify +UVM_NO_RELNOTES to turn off this notice)
# 
# UVM_INFO verilog_src/questa_uvm_pkg-1.2/src/questa_uvm_pkg.sv(277) @ 0: reporter [Questa UVM] QUESTA_UVM-1.2.3
# UVM_INFO verilog_src/questa_uvm_pkg-1.2/src/questa_uvm_pkg.sv(278) @ 0: reporter [Questa UVM]  questa_uvm::init(+struct)
# UVM_INFO @ 0: reporter [RNTST] Running test axi_wrap_narrow_test...
# ** Warning: (vsim-8549) After dropping the illegal, ignore or invalid values, the values list associated with scalar bin 'ign_reserved_cb' in Coverpoint 'awburst_cp' of Covergroup instance '\/axi_env_pkg::axi_coverage::axi_cvg ' has converged to empty list. The bin will be taken out of coverage calculation.
#    Time: 0 ns  Iteration: 7  Region: /uvm_pkg::uvm_phase::m_run_phases
#                    0 === Sequence Data === 
#                    0 MASTER DRIVER RAISE OBJ [WRITE] 
#                    0 === Sequence Data === 
#                    0 MASTER DRIVER RAISE OBJ [WRITE] 
#                    0 === Sequence Data === 
#                    0 MASTER DRIVER RAISE OBJ [WRITE] 
#                    0 === Sequence Data === 
#                    0 MASTER DRIVER RAISE OBJ [WRITE] 
#                    0 === Sequence Data === 
#                    0 MASTER DRIVER RAISE OBJ [WRITE] 
#                    0 === Sequence Data === 
#                    0 MASTER DRIVER RAISE OBJ [WRITE] 
#                    0 === Sequence Data === 
#                    0 MASTER DRIVER RAISE OBJ [WRITE] 
#                    0 === Sequence Data === 
#                    0 MASTER DRIVER RAISE OBJ [WRITE] 
#                    0 === Sequence Data === 
#                    0 MASTER DRIVER RAISE OBJ [WRITE] 
#                    0 === Sequence Data === 
#                    0 MASTER DRIVER RAISE OBJ [WRITE] 
# ** Info:                   15 WADDR CHANNEL HANDSHAKING ASSERTION PASSED [NO WAIT] !!!
#    Time: 15 ns Started: 15 ns  Scope: axi_top.axi_ass_inst.AWValid_No_Wait_property_check File: ../TOP/axi_assertion.sv Line: 66
# ** Error:                   25 RDATA CHANNEL HANDSHAKING ASSERTION FAILED !!!
#    Time: 25 ns Started: 25 ns  Scope: axi_top.axi_ass_inst.Rvalid_Ready_property_check File: ../TOP/axi_assertion.sv Line: 111 Expr: $past(inf.arvalid,null,inf.arvalid&inf.arready)
# ** Info:                   25 WADDR CHANNEL HANDSHAKING ASSERTION PASSED [NO WAIT] !!!
#    Time: 25 ns Started: 25 ns  Scope: axi_top.axi_ass_inst.AWValid_No_Wait_property_check File: ../TOP/axi_assertion.sv Line: 66
# ** Error:                   35 RDATA CHANNEL HANDSHAKING ASSERTION FAILED !!!
#    Time: 35 ns Started: 35 ns  Scope: axi_top.axi_ass_inst.Rvalid_Ready_property_check File: ../TOP/axi_assertion.sv Line: 111 Expr: $past(inf.arvalid,null,inf.arvalid&inf.arready)
# ** Info:                   35 WADDR CHANNEL HANDSHAKING ASSERTION PASSED [WAIT] !!!
#    Time: 35 ns Started: 25 ns  Scope: axi_top.axi_ass_inst.AWValid_Wait_property_check File: ../TOP/axi_assertion.sv Line: 62
# ** Info:                   35 WADDR CHANNEL HANDSHAKING ASSERTION PASSED [NO WAIT] !!!
#    Time: 35 ns Started: 35 ns  Scope: axi_top.axi_ass_inst.AWValid_No_Wait_property_check File: ../TOP/axi_assertion.sv Line: 66
#                   45 *** Slave Monitor Write Data *** 
#                   45 *** Master Monitor Write Data *** 
#                   45: Slave sequence WRITE response 
#  ==  witem_arr[86]  == 
# ------------------------------------------------------
# Name             Type                Size  Value      
# ------------------------------------------------------
#  witem_arr[86]   uvm_sequence_item   -     @1562      
#   operation      operation_se        2     WRITE      
#   awid           integral            8     'd86       
#   awaddr         da(integral)        4     -          
#     [0]          integral            32    'hd3c54d3f 
#     [1]          integral            32    'hd3c54d3c 
#     [2]          integral            32    'hd3c54d3d 
#     [3]          integral            32    'hd3c54d3e 
#   awlen          integral            8     'd3        
#   awsize         axi_size_se         3     size_1_BYTE
#   awburst        axi_burst_se        2     WRAP       
#   wid            integral            8     'd86       
#   wdata          da(integral)        4     -          
#     [0]          integral            32    'h6b8eb1bc 
#     [1]          integral            32    'hc347b0aa 
#     [2]          integral            32    'hcf789115 
#     [3]          integral            32    'hea9afa5  
#   wstrb          da(integral)        4     -          
#     [0]          integral            4     'b1        
#     [1]          integral            4     'b10       
#     [2]          integral            4     'b100      
#     [3]          integral            4     'b1000     
#   bid            integral            8     'd86       
#   bresp          axi_resp_se         2     OKAY       
#   arid           integral            8     'd0        
#   araddr         da(integral)        0     -          
#   arlen          integral            8     'd0        
#   arsize         axi_size_se         3     size_1_BYTE
#   arburst        axi_burst_se        2     FIXED      
#   rid            integral            8     'd0        
#   rdata          da(integral)        0     -          
#   rresp          array(axi_resp_se)  0     -          
# ------------------------------------------------------
#                   45 REF_MODEL GET WRITE DATA 
# ** Error:                   45 RDATA CHANNEL HANDSHAKING ASSERTION FAILED !!!
#    Time: 45 ns Started: 45 ns  Scope: axi_top.axi_ass_inst.Rvalid_Ready_property_check File: ../TOP/axi_assertion.sv Line: 111 Expr: $past(inf.arvalid,null,inf.arvalid&inf.arready)
# ** Info:                   45 WADDR CHANNEL HANDSHAKING ASSERTION PASSED [NO WAIT] !!!
#    Time: 45 ns Started: 45 ns  Scope: axi_top.axi_ass_inst.AWValid_No_Wait_property_check File: ../TOP/axi_assertion.sv Line: 66
# ** Error:                   55 RDATA CHANNEL HANDSHAKING ASSERTION FAILED !!!
#    Time: 55 ns Started: 55 ns  Scope: axi_top.axi_ass_inst.Rvalid_Ready_property_check File: ../TOP/axi_assertion.sv Line: 111 Expr: $past(inf.arvalid,null,inf.arvalid&inf.arready)
# ** Error:                   55 WDATA CHANNEL HANDSHAKING ASSERTION FAILED !!!
#    Time: 55 ns Started: 45 ns  Scope: axi_top.axi_ass_inst.WValid_Ready_property_check File: ../TOP/axi_assertion.sv Line: 96 Expr: $stable(inf.wdata)
# ** Info:                   55 WADDR CHANNEL HANDSHAKING ASSERTION PASSED [WAIT] !!!
#    Time: 55 ns Started: 45 ns  Scope: axi_top.axi_ass_inst.AWValid_Wait_property_check File: ../TOP/axi_assertion.sv Line: 62
# ** Info:                   55 WADDR CHANNEL HANDSHAKING ASSERTION PASSED [NO WAIT] !!!
#    Time: 55 ns Started: 55 ns  Scope: axi_top.axi_ass_inst.AWValid_No_Wait_property_check File: ../TOP/axi_assertion.sv Line: 66
#                   65 MASTER DRIVER WRITE RESPONSE 
#                   65 *** Slave Monitor Write Data with response *** 
#                   65 *** Master Monitor Write Data with response *** 
#                   65 MASTER DRIVER DROP OBJ [WRITE] 
#                   65 MASTER DRIVER DROP OBJ [WRITE] 
#                   65 MASTER DRIVER DROP OBJ [WRITE] 
#                   65 MASTER DRIVER DROP OBJ [WRITE] 
#                   65 MASTER DRIVER DROP OBJ [WRITE] 
#                   65 MASTER DRIVER DROP OBJ [WRITE] 
#                   65 MASTER DRIVER DROP OBJ [WRITE] 
#                   65 MASTER DRIVER DROP OBJ [WRITE] 
#                   65 MASTER DRIVER DROP OBJ [WRITE] 
#                   65 MASTER DRIVER DROP OBJ [WRITE] 
#                   65|| ---- WRITE RESPONSE SUCCESS !!!! ---- || Success Count = 1
# ** Error:                   65 RDATA CHANNEL HANDSHAKING ASSERTION FAILED !!!
#    Time: 65 ns Started: 65 ns  Scope: axi_top.axi_ass_inst.Rvalid_Ready_property_check File: ../TOP/axi_assertion.sv Line: 111 Expr: $past(inf.arvalid,null,inf.arvalid&inf.arready)
# ** Info:                   65 WDATA CHANNEL HANDSHAKING ASSERTION PASSED !!!
#    Time: 65 ns Started: 55 ns  Scope: axi_top.axi_ass_inst.WValid_Ready_property_check File: ../TOP/axi_assertion.sv Line: 95
# ** Info:                   65 WADDR CHANNEL HANDSHAKING ASSERTION PASSED [NO WAIT] !!!
#    Time: 65 ns Started: 65 ns  Scope: axi_top.axi_ass_inst.AWValid_No_Wait_property_check File: ../TOP/axi_assertion.sv Line: 66
# ** Error:                   75 RDATA CHANNEL HANDSHAKING ASSERTION FAILED !!!
#    Time: 75 ns Started: 75 ns  Scope: axi_top.axi_ass_inst.Rvalid_Ready_property_check File: ../TOP/axi_assertion.sv Line: 111 Expr: $past(inf.arvalid,null,inf.arvalid&inf.arready)
# ** Info:                   75 WADDR CHANNEL HANDSHAKING ASSERTION PASSED [WAIT] !!!
#    Time: 75 ns Started: 65 ns  Scope: axi_top.axi_ass_inst.AWValid_Wait_property_check File: ../TOP/axi_assertion.sv Line: 62
# ** Info:                   75 WADDR CHANNEL HANDSHAKING ASSERTION PASSED [NO WAIT] !!!
#    Time: 75 ns Started: 75 ns  Scope: axi_top.axi_ass_inst.AWValid_No_Wait_property_check File: ../TOP/axi_assertion.sv Line: 66
# ** Error:                   85 RDATA CHANNEL HANDSHAKING ASSERTION FAILED !!!
#    Time: 85 ns Started: 85 ns  Scope: axi_top.axi_ass_inst.Rvalid_Ready_property_check File: ../TOP/axi_assertion.sv Line: 111 Expr: $past(inf.arvalid,null,inf.arvalid&inf.arready)
# ** Info:                   85 WADDR CHANNEL HANDSHAKING ASSERTION PASSED [NO WAIT] !!!
#    Time: 85 ns Started: 85 ns  Scope: axi_top.axi_ass_inst.AWValid_No_Wait_property_check File: ../TOP/axi_assertion.sv Line: 66
# ** Error:                   95 RDATA CHANNEL HANDSHAKING ASSERTION FAILED !!!
#    Time: 95 ns Started: 95 ns  Scope: axi_top.axi_ass_inst.Rvalid_Ready_property_check File: ../TOP/axi_assertion.sv Line: 111 Expr: $past(inf.arvalid,null,inf.arvalid&inf.arready)
# ** Info:                   95 WADDR CHANNEL HANDSHAKING ASSERTION PASSED [WAIT] !!!
#    Time: 95 ns Started: 85 ns  Scope: axi_top.axi_ass_inst.AWValid_Wait_property_check File: ../TOP/axi_assertion.sv Line: 62
# ** Info:                   95 WADDR CHANNEL HANDSHAKING ASSERTION PASSED [NO WAIT] !!!
#    Time: 95 ns Started: 95 ns  Scope: axi_top.axi_ass_inst.AWValid_No_Wait_property_check File: ../TOP/axi_assertion.sv Line: 66
# ** Error:                  105 RDATA CHANNEL HANDSHAKING ASSERTION FAILED !!!
#    Time: 105 ns Started: 105 ns  Scope: axi_top.axi_ass_inst.Rvalid_Ready_property_check File: ../TOP/axi_assertion.sv Line: 111 Expr: $past(inf.arvalid,null,inf.arvalid&inf.arready)
# ** Info:                  105 WADDR CHANNEL HANDSHAKING ASSERTION PASSED [NO WAIT] !!!
#    Time: 105 ns Started: 105 ns  Scope: axi_top.axi_ass_inst.AWValid_No_Wait_property_check File: ../TOP/axi_assertion.sv Line: 66
# ** Error:                  115 RDATA CHANNEL HANDSHAKING ASSERTION FAILED !!!
#    Time: 115 ns Started: 115 ns  Scope: axi_top.axi_ass_inst.Rvalid_Ready_property_check File: ../TOP/axi_assertion.sv Line: 111 Expr: $past(inf.arvalid,null,inf.arvalid&inf.arready)
# ** Info:                  115 WADDR CHANNEL HANDSHAKING ASSERTION PASSED [WAIT] !!!
#    Time: 115 ns Started: 105 ns  Scope: axi_top.axi_ass_inst.AWValid_Wait_property_check File: ../TOP/axi_assertion.sv Line: 62
# ** Info:                  115 WADDR CHANNEL HANDSHAKING ASSERTION PASSED [NO WAIT] !!!
#    Time: 115 ns Started: 115 ns  Scope: axi_top.axi_ass_inst.AWValid_No_Wait_property_check File: ../TOP/axi_assertion.sv Line: 66
# ** Error:                  125 RDATA CHANNEL HANDSHAKING ASSERTION FAILED !!!
#    Time: 125 ns Started: 125 ns  Scope: axi_top.axi_ass_inst.Rvalid_Ready_property_check File: ../TOP/axi_assertion.sv Line: 111 Expr: $past(inf.arvalid,null,inf.arvalid&inf.arready)
# ** Info:                  125 WADDR CHANNEL HANDSHAKING ASSERTION PASSED [NO WAIT] !!!
#    Time: 125 ns Started: 125 ns  Scope: axi_top.axi_ass_inst.AWValid_No_Wait_property_check File: ../TOP/axi_assertion.sv Line: 66
# ** Error:                  135 RDATA CHANNEL HANDSHAKING ASSERTION FAILED !!!
#    Time: 135 ns Started: 135 ns  Scope: axi_top.axi_ass_inst.Rvalid_Ready_property_check File: ../TOP/axi_assertion.sv Line: 111 Expr: $past(inf.arvalid,null,inf.arvalid&inf.arready)
# ** Info:                  135 WADDR CHANNEL HANDSHAKING ASSERTION PASSED [WAIT] !!!
#    Time: 135 ns Started: 125 ns  Scope: axi_top.axi_ass_inst.AWValid_Wait_property_check File: ../TOP/axi_assertion.sv Line: 62
# ** Info:                  135 WADDR CHANNEL HANDSHAKING ASSERTION PASSED [NO WAIT] !!!
#    Time: 135 ns Started: 135 ns  Scope: axi_top.axi_ass_inst.AWValid_No_Wait_property_check File: ../TOP/axi_assertion.sv Line: 66
#                  145 *** Slave Monitor Write Data *** 
#                  145 *** Master Monitor Write Data *** 
#                  145: Slave sequence WRITE response 
#  ==  witem_arr[105]  == 
# -------------------------------------------------------
# Name              Type                Size  Value      
# -------------------------------------------------------
#  witem_arr[105]   uvm_sequence_item   -     @1570      
#   operation       operation_se        2     WRITE      
#   awid            integral            8     'd105      
#   awaddr          da(integral)        8     -          
#     [0]           integral            32    'h8a243f5d 
#     [1]           integral            32    'h8a243f5e 
#     [2]           integral            32    'h8a243f5f 
#     [3]           integral            32    'h8a243f58 
#     [4]           integral            32    'h8a243f59 
#     [5]           integral            32    'h8a243f5a 
#     [6]           integral            32    'h8a243f5b 
#     [7]           integral            32    'h8a243f5c 
#   awlen           integral            8     'd7        
#   awsize          axi_size_se         3     size_1_BYTE
#   awburst         axi_burst_se        2     WRAP       
#   wid             integral            8     'd105      
#   wdata           da(integral)        8     -          
#     [0]           integral            32    'h794d2206 
#     [1]           integral            32    'hd2b82288 
#     [2]           integral            32    'h75c55f9b 
#     [3]           integral            32    'heb8241bc 
#     [4]           integral            32    'hc1a1a1ad 
#     [5]           integral            32    'hea120a94 
#     [6]           integral            32    'hfd33c8fc 
#     [7]           integral            32    'h74b59c1c 
#   wstrb           da(integral)        8     -          
#     [0]           integral            4     'b1        
#     [1]           integral            4     'b10       
#     [2]           integral            4     'b100      
#     [3]           integral            4     'b1000     
#     [4]           integral            4     'b1        
#     [5]           integral            4     'b10       
#     [6]           integral            4     'b100      
#     [7]           integral            4     'b1000     
#   bid             integral            8     'd105      
#   bresp           axi_resp_se         2     OKAY       
#   arid            integral            8     'd0        
#   araddr          da(integral)        0     -          
#   arlen           integral            8     'd0        
#   arsize          axi_size_se         3     size_1_BYTE
#   arburst         axi_burst_se        2     FIXED      
#   rid             integral            8     'd0        
#   rdata           da(integral)        0     -          
#   rresp           array(axi_resp_se)  0     -          
# -------------------------------------------------------
#                  145 REF_MODEL GET WRITE DATA 
# ** Error:                  145 RDATA CHANNEL HANDSHAKING ASSERTION FAILED !!!
#    Time: 145 ns Started: 145 ns  Scope: axi_top.axi_ass_inst.Rvalid_Ready_property_check File: ../TOP/axi_assertion.sv Line: 111 Expr: $past(inf.arvalid,null,inf.arvalid&inf.arready)
# ** Info:                  145 WADDR CHANNEL HANDSHAKING ASSERTION PASSED [NO WAIT] !!!
#    Time: 145 ns Started: 145 ns  Scope: axi_top.axi_ass_inst.AWValid_No_Wait_property_check File: ../TOP/axi_assertion.sv Line: 66
# ** Error:                  155 RDATA CHANNEL HANDSHAKING ASSERTION FAILED !!!
#    Time: 155 ns Started: 155 ns  Scope: axi_top.axi_ass_inst.Rvalid_Ready_property_check File: ../TOP/axi_assertion.sv Line: 111 Expr: $past(inf.arvalid,null,inf.arvalid&inf.arready)
# ** Error:                  155 WDATA CHANNEL HANDSHAKING ASSERTION FAILED !!!
#    Time: 155 ns Started: 145 ns  Scope: axi_top.axi_ass_inst.WValid_Ready_property_check File: ../TOP/axi_assertion.sv Line: 96 Expr: $stable(inf.wdata)
# ** Info:                  155 WADDR CHANNEL HANDSHAKING ASSERTION PASSED [WAIT] !!!
#    Time: 155 ns Started: 145 ns  Scope: axi_top.axi_ass_inst.AWValid_Wait_property_check File: ../TOP/axi_assertion.sv Line: 62
# ** Info:                  155 WADDR CHANNEL HANDSHAKING ASSERTION PASSED [NO WAIT] !!!
#    Time: 155 ns Started: 155 ns  Scope: axi_top.axi_ass_inst.AWValid_No_Wait_property_check File: ../TOP/axi_assertion.sv Line: 66
#                  165 MASTER DRIVER WRITE RESPONSE 
#                  165 *** Slave Monitor Write Data with response *** 
#                  165 *** Master Monitor Write Data with response *** 
#                  165|| ---- WRITE RESPONSE SUCCESS !!!! ---- || Success Count = 2
# ** Error:                  165 RDATA CHANNEL HANDSHAKING ASSERTION FAILED !!!
#    Time: 165 ns Started: 165 ns  Scope: axi_top.axi_ass_inst.Rvalid_Ready_property_check File: ../TOP/axi_assertion.sv Line: 111 Expr: $past(inf.arvalid,null,inf.arvalid&inf.arready)
# ** Info:                  165 WDATA CHANNEL HANDSHAKING ASSERTION PASSED !!!
#    Time: 165 ns Started: 155 ns  Scope: axi_top.axi_ass_inst.WValid_Ready_property_check File: ../TOP/axi_assertion.sv Line: 95
# ** Info:                  165 WADDR CHANNEL HANDSHAKING ASSERTION PASSED [NO WAIT] !!!
#    Time: 165 ns Started: 165 ns  Scope: axi_top.axi_ass_inst.AWValid_No_Wait_property_check File: ../TOP/axi_assertion.sv Line: 66
# ** Error:                  175 RDATA CHANNEL HANDSHAKING ASSERTION FAILED !!!
#    Time: 175 ns Started: 175 ns  Scope: axi_top.axi_ass_inst.Rvalid_Ready_property_check File: ../TOP/axi_assertion.sv Line: 111 Expr: $past(inf.arvalid,null,inf.arvalid&inf.arready)
# ** Info:                  175 WADDR CHANNEL HANDSHAKING ASSERTION PASSED [WAIT] !!!
#    Time: 175 ns Started: 165 ns  Scope: axi_top.axi_ass_inst.AWValid_Wait_property_check File: ../TOP/axi_assertion.sv Line: 62
# ** Info:                  175 WADDR CHANNEL HANDSHAKING ASSERTION PASSED [NO WAIT] !!!
#    Time: 175 ns Started: 175 ns  Scope: axi_top.axi_ass_inst.AWValid_No_Wait_property_check File: ../TOP/axi_assertion.sv Line: 66
# ** Error:                  185 RDATA CHANNEL HANDSHAKING ASSERTION FAILED !!!
#    Time: 185 ns Started: 185 ns  Scope: axi_top.axi_ass_inst.Rvalid_Ready_property_check File: ../TOP/axi_assertion.sv Line: 111 Expr: $past(inf.arvalid,null,inf.arvalid&inf.arready)
# ** Info:                  185 WADDR CHANNEL HANDSHAKING ASSERTION PASSED [NO WAIT] !!!
#    Time: 185 ns Started: 185 ns  Scope: axi_top.axi_ass_inst.AWValid_No_Wait_property_check File: ../TOP/axi_assertion.sv Line: 66
# ** Error:                  195 RDATA CHANNEL HANDSHAKING ASSERTION FAILED !!!
#    Time: 195 ns Started: 195 ns  Scope: axi_top.axi_ass_inst.Rvalid_Ready_property_check File: ../TOP/axi_assertion.sv Line: 111 Expr: $past(inf.arvalid,null,inf.arvalid&inf.arready)
# ** Info:                  195 WADDR CHANNEL HANDSHAKING ASSERTION PASSED [WAIT] !!!
#    Time: 195 ns Started: 185 ns  Scope: axi_top.axi_ass_inst.AWValid_Wait_property_check File: ../TOP/axi_assertion.sv Line: 62
# ** Info:                  195 WADDR CHANNEL HANDSHAKING ASSERTION PASSED [NO WAIT] !!!
#    Time: 195 ns Started: 195 ns  Scope: axi_top.axi_ass_inst.AWValid_No_Wait_property_check File: ../TOP/axi_assertion.sv Line: 66
# ** Error:                  205 RDATA CHANNEL HANDSHAKING ASSERTION FAILED !!!
#    Time: 205 ns Started: 205 ns  Scope: axi_top.axi_ass_inst.Rvalid_Ready_property_check File: ../TOP/axi_assertion.sv Line: 111 Expr: $past(inf.arvalid,null,inf.arvalid&inf.arready)
# ** Error:                  215 RDATA CHANNEL HANDSHAKING ASSERTION FAILED !!!
#    Time: 215 ns Started: 215 ns  Scope: axi_top.axi_ass_inst.Rvalid_Ready_property_check File: ../TOP/axi_assertion.sv Line: 111 Expr: $past(inf.arvalid,null,inf.arvalid&inf.arready)
# ** Error:                  225 RDATA CHANNEL HANDSHAKING ASSERTION FAILED !!!
#    Time: 225 ns Started: 225 ns  Scope: axi_top.axi_ass_inst.Rvalid_Ready_property_check File: ../TOP/axi_assertion.sv Line: 111 Expr: $past(inf.arvalid,null,inf.arvalid&inf.arready)
# ** Error:                  235 RDATA CHANNEL HANDSHAKING ASSERTION FAILED !!!
#    Time: 235 ns Started: 235 ns  Scope: axi_top.axi_ass_inst.Rvalid_Ready_property_check File: ../TOP/axi_assertion.sv Line: 111 Expr: $past(inf.arvalid,null,inf.arvalid&inf.arready)
#                  245 *** Slave Monitor Write Data *** 
#                  245 *** Master Monitor Write Data *** 
#                  245: Slave sequence WRITE response 
#  ==  witem_arr[243]  == 
# -------------------------------------------------------
# Name              Type                Size  Value      
# -------------------------------------------------------
#  witem_arr[243]   uvm_sequence_item   -     @1579      
#   operation       operation_se        2     WRITE      
#   awid            integral            8     243        
#   awaddr          da(integral)        8     -          
#     [0]           integral            32    'h9115e4e4 
#     [1]           integral            32    'h9115e4e5 
#     [2]           integral            32    'h9115e4e6 
#     [3]           integral            32    'h9115e4e7 
#     [4]           integral            32    'h9115e4e0 
#     [5]           integral            32    'h9115e4e1 
#     [6]           integral            32    'h9115e4e2 
#     [7]           integral            32    'h9115e4e3 
#   awlen           integral            8     'd7        
#   awsize          axi_size_se         3     size_1_BYTE
#   awburst         axi_burst_se        2     WRAP       
#   wid             integral            8     243        
#   wdata           da(integral)        8     -          
#     [0]           integral            32    'h72f8df93 
#     [1]           integral            32    'h5620941f 
#     [2]           integral            32    'hc631f224 
#     [3]           integral            32    'h438dc39  
#     [4]           integral            32    'hbdbadbf5 
#     [5]           integral            32    'hd94a433d 
#     [6]           integral            32    'h2939f0ae 
#     [7]           integral            32    'hb5112719 
#   wstrb           da(integral)        8     -          
#     [0]           integral            4     'b1        
#     [1]           integral            4     'b10       
#     [2]           integral            4     'b100      
#     [3]           integral            4     'b1000     
#     [4]           integral            4     'b1        
#     [5]           integral            4     'b10       
#     [6]           integral            4     'b100      
#     [7]           integral            4     'b1000     
#   bid             integral            8     243        
#   bresp           axi_resp_se         2     OKAY       
#   arid            integral            8     'd0        
#   araddr          da(integral)        0     -          
#   arlen           integral            8     'd0        
#   arsize          axi_size_se         3     size_1_BYTE
#   arburst         axi_burst_se        2     FIXED      
#   rid             integral            8     'd0        
#   rdata           da(integral)        0     -          
#   rresp           array(axi_resp_se)  0     -          
# -------------------------------------------------------
#                  245 REF_MODEL GET WRITE DATA 
# ** Error:                  245 RDATA CHANNEL HANDSHAKING ASSERTION FAILED !!!
#    Time: 245 ns Started: 245 ns  Scope: axi_top.axi_ass_inst.Rvalid_Ready_property_check File: ../TOP/axi_assertion.sv Line: 111 Expr: $past(inf.arvalid,null,inf.arvalid&inf.arready)
# ** Error:                  255 WDATA CHANNEL HANDSHAKING ASSERTION FAILED !!!
#    Time: 255 ns Started: 245 ns  Scope: axi_top.axi_ass_inst.WValid_Ready_property_check File: ../TOP/axi_assertion.sv Line: 96 Expr: $stable(inf.wdata)
# ** Error:                  255 RDATA CHANNEL HANDSHAKING ASSERTION FAILED !!!
#    Time: 255 ns Started: 255 ns  Scope: axi_top.axi_ass_inst.Rvalid_Ready_property_check File: ../TOP/axi_assertion.sv Line: 111 Expr: $past(inf.arvalid,null,inf.arvalid&inf.arready)
#                  265 MASTER DRIVER WRITE RESPONSE 
#                  265 *** Slave Monitor Write Data with response *** 
#                  265 *** Master Monitor Write Data with response *** 
#                  265|| ---- WRITE RESPONSE SUCCESS !!!! ---- || Success Count = 3
# ** Info:                  265 WDATA CHANNEL HANDSHAKING ASSERTION PASSED !!!
#    Time: 265 ns Started: 255 ns  Scope: axi_top.axi_ass_inst.WValid_Ready_property_check File: ../TOP/axi_assertion.sv Line: 95
# ** Error:                  265 RDATA CHANNEL HANDSHAKING ASSERTION FAILED !!!
#    Time: 265 ns Started: 265 ns  Scope: axi_top.axi_ass_inst.Rvalid_Ready_property_check File: ../TOP/axi_assertion.sv Line: 111 Expr: $past(inf.arvalid,null,inf.arvalid&inf.arready)
# ** Error:                  275 RDATA CHANNEL HANDSHAKING ASSERTION FAILED !!!
#    Time: 275 ns Started: 275 ns  Scope: axi_top.axi_ass_inst.Rvalid_Ready_property_check File: ../TOP/axi_assertion.sv Line: 111 Expr: $past(inf.arvalid,null,inf.arvalid&inf.arready)
# ** Error:                  285 RDATA CHANNEL HANDSHAKING ASSERTION FAILED !!!
#    Time: 285 ns Started: 285 ns  Scope: axi_top.axi_ass_inst.Rvalid_Ready_property_check File: ../TOP/axi_assertion.sv Line: 111 Expr: $past(inf.arvalid,null,inf.arvalid&inf.arready)
# ** Error:                  295 RDATA CHANNEL HANDSHAKING ASSERTION FAILED !!!
#    Time: 295 ns Started: 295 ns  Scope: axi_top.axi_ass_inst.Rvalid_Ready_property_check File: ../TOP/axi_assertion.sv Line: 111 Expr: $past(inf.arvalid,null,inf.arvalid&inf.arready)
# ** Error:                  305 RDATA CHANNEL HANDSHAKING ASSERTION FAILED !!!
#    Time: 305 ns Started: 305 ns  Scope: axi_top.axi_ass_inst.Rvalid_Ready_property_check File: ../TOP/axi_assertion.sv Line: 111 Expr: $past(inf.arvalid,null,inf.arvalid&inf.arready)
# ** Error:                  315 RDATA CHANNEL HANDSHAKING ASSERTION FAILED !!!
#    Time: 315 ns Started: 315 ns  Scope: axi_top.axi_ass_inst.Rvalid_Ready_property_check File: ../TOP/axi_assertion.sv Line: 111 Expr: $past(inf.arvalid,null,inf.arvalid&inf.arready)
# ** Error:                  325 RDATA CHANNEL HANDSHAKING ASSERTION FAILED !!!
#    Time: 325 ns Started: 325 ns  Scope: axi_top.axi_ass_inst.Rvalid_Ready_property_check File: ../TOP/axi_assertion.sv Line: 111 Expr: $past(inf.arvalid,null,inf.arvalid&inf.arready)
# ** Error:                  335 RDATA CHANNEL HANDSHAKING ASSERTION FAILED !!!
#    Time: 335 ns Started: 335 ns  Scope: axi_top.axi_ass_inst.Rvalid_Ready_property_check File: ../TOP/axi_assertion.sv Line: 111 Expr: $past(inf.arvalid,null,inf.arvalid&inf.arready)
#                  345 *** Slave Monitor Write Data *** 
#                  345 *** Master Monitor Write Data *** 
#                  345: Slave sequence WRITE response 
#  ==  witem_arr[126]  == 
# --------------------------------------------------------
# Name              Type                Size  Value       
# --------------------------------------------------------
#  witem_arr[126]   uvm_sequence_item   -     @1587       
#   operation       operation_se        2     WRITE       
#   awid            integral            8     'd126       
#   awaddr          da(integral)        16    -           
#     [0]           integral            32    'hbc7de032  
#     [1]           integral            32    'hbc7de033  
#     [2]           integral            32    'hbc7de034  
#     [3]           integral            32    'hbc7de035  
#     [4]           integral            32    'hbc7de036  
#     ...           ...                 ...   ...         
#     [11]          integral            32    'hbc7de03d  
#     [12]          integral            32    'hbc7de03e  
#     [13]          integral            32    'hbc7de03f  
#     [14]          integral            32    'hbc7de030  
#     [15]          integral            32    'hbc7de031  
#   awlen           integral            8     'd7         
#   awsize          axi_size_se         3     size_2_BYTES
#   awburst         axi_burst_se        2     WRAP        
#   wid             integral            8     'd126       
#   wdata           da(integral)        8     -           
#     [0]           integral            32    'h281b4758  
#     [1]           integral            32    'h7a76fb72  
#     [2]           integral            32    'he8187a5f  
#     [3]           integral            32    'hf3bdd0eb  
#     [4]           integral            32    'ha4b617d6  
#     [5]           integral            32    'hf17268cb  
#     [6]           integral            32    'h57c9e58   
#     [7]           integral            32    'h2d68bc1d  
#   wstrb           da(integral)        8     -           
#     [0]           integral            4     'b11        
#     [1]           integral            4     'b1100      
#     [2]           integral            4     'b11        
#     [3]           integral            4     'b1100      
#     [4]           integral            4     'b11        
#     [5]           integral            4     'b1100      
#     [6]           integral            4     'b11        
#     [7]           integral            4     'b1100      
#   bid             integral            8     'd126       
#   bresp           axi_resp_se         2     OKAY        
#   arid            integral            8     'd0         
#   araddr          da(integral)        0     -           
#   arlen           integral            8     'd0         
#   arsize          axi_size_se         3     size_1_BYTE 
#   arburst         axi_burst_se        2     FIXED       
#   rid             integral            8     'd0         
#   rdata           da(integral)        0     -           
#   rresp           array(axi_resp_se)  0     -           
# --------------------------------------------------------
#                  345 REF_MODEL GET WRITE DATA 
# ** Error:                  345 RDATA CHANNEL HANDSHAKING ASSERTION FAILED !!!
#    Time: 345 ns Started: 345 ns  Scope: axi_top.axi_ass_inst.Rvalid_Ready_property_check File: ../TOP/axi_assertion.sv Line: 111 Expr: $past(inf.arvalid,null,inf.arvalid&inf.arready)
# ** Error:                  355 WDATA CHANNEL HANDSHAKING ASSERTION FAILED !!!
#    Time: 355 ns Started: 345 ns  Scope: axi_top.axi_ass_inst.WValid_Ready_property_check File: ../TOP/axi_assertion.sv Line: 96 Expr: $stable(inf.wdata)
# ** Error:                  355 RDATA CHANNEL HANDSHAKING ASSERTION FAILED !!!
#    Time: 355 ns Started: 355 ns  Scope: axi_top.axi_ass_inst.Rvalid_Ready_property_check File: ../TOP/axi_assertion.sv Line: 111 Expr: $past(inf.arvalid,null,inf.arvalid&inf.arready)
#                  365 MASTER DRIVER WRITE RESPONSE 
#                  365 *** Slave Monitor Write Data with response *** 
#                  365 *** Master Monitor Write Data with response *** 
#                  365|| ---- WRITE RESPONSE SUCCESS !!!! ---- || Success Count = 4
# ** Info:                  365 WDATA CHANNEL HANDSHAKING ASSERTION PASSED !!!
#    Time: 365 ns Started: 355 ns  Scope: axi_top.axi_ass_inst.WValid_Ready_property_check File: ../TOP/axi_assertion.sv Line: 95
# ** Error:                  365 RDATA CHANNEL HANDSHAKING ASSERTION FAILED !!!
#    Time: 365 ns Started: 365 ns  Scope: axi_top.axi_ass_inst.Rvalid_Ready_property_check File: ../TOP/axi_assertion.sv Line: 111 Expr: $past(inf.arvalid,null,inf.arvalid&inf.arready)
# ** Error:                  375 RDATA CHANNEL HANDSHAKING ASSERTION FAILED !!!
#    Time: 375 ns Started: 375 ns  Scope: axi_top.axi_ass_inst.Rvalid_Ready_property_check File: ../TOP/axi_assertion.sv Line: 111 Expr: $past(inf.arvalid,null,inf.arvalid&inf.arready)
# ** Error:                  385 RDATA CHANNEL HANDSHAKING ASSERTION FAILED !!!
#    Time: 385 ns Started: 385 ns  Scope: axi_top.axi_ass_inst.Rvalid_Ready_property_check File: ../TOP/axi_assertion.sv Line: 111 Expr: $past(inf.arvalid,null,inf.arvalid&inf.arready)
# ** Error:                  395 RDATA CHANNEL HANDSHAKING ASSERTION FAILED !!!
#    Time: 395 ns Started: 395 ns  Scope: axi_top.axi_ass_inst.Rvalid_Ready_property_check File: ../TOP/axi_assertion.sv Line: 111 Expr: $past(inf.arvalid,null,inf.arvalid&inf.arready)
#                  405 *** Slave Monitor Write Data *** 
#                  405 *** Master Monitor Write Data *** 
#                  405: Slave sequence WRITE response 
#  ==  witem_arr[165]  == 
# -------------------------------------------------------
# Name              Type                Size  Value      
# -------------------------------------------------------
#  witem_arr[165]   uvm_sequence_item   -     @1595      
#   operation       operation_se        2     WRITE      
#   awid            integral            8     165        
#   awaddr          da(integral)        4     -          
#     [0]           integral            32    'h22c99ac1 
#     [1]           integral            32    'h22c99ac2 
#     [2]           integral            32    'h22c99ac3 
#     [3]           integral            32    'h22c99ac0 
#   awlen           integral            8     'd3        
#   awsize          axi_size_se         3     size_1_BYTE
#   awburst         axi_burst_se        2     WRAP       
#   wid             integral            8     165        
#   wdata           da(integral)        4     -          
#     [0]           integral            32    'h412ba17e 
#     [1]           integral            32    'hdc259ecb 
#     [2]           integral            32    'h9a486d6e 
#     [3]           integral            32    'h28268cf7 
#   wstrb           da(integral)        4     -          
#     [0]           integral            4     'b1        
#     [1]           integral            4     'b10       
#     [2]           integral            4     'b100      
#     [3]           integral            4     'b1000     
#   bid             integral            8     165        
#   bresp           axi_resp_se         2     OKAY       
#   arid            integral            8     'd0        
#   araddr          da(integral)        0     -          
#   arlen           integral            8     'd0        
#   arsize          axi_size_se         3     size_1_BYTE
#   arburst         axi_burst_se        2     FIXED      
#   rid             integral            8     'd0        
#   rdata           da(integral)        0     -          
#   rresp           array(axi_resp_se)  0     -          
# -------------------------------------------------------
#                  405 REF_MODEL GET WRITE DATA 
# ** Error:                  405 RDATA CHANNEL HANDSHAKING ASSERTION FAILED !!!
#    Time: 405 ns Started: 405 ns  Scope: axi_top.axi_ass_inst.Rvalid_Ready_property_check File: ../TOP/axi_assertion.sv Line: 111 Expr: $past(inf.arvalid,null,inf.arvalid&inf.arready)
# ** Error:                  415 WDATA CHANNEL HANDSHAKING ASSERTION FAILED !!!
#    Time: 415 ns Started: 405 ns  Scope: axi_top.axi_ass_inst.WValid_Ready_property_check File: ../TOP/axi_assertion.sv Line: 96 Expr: $stable(inf.wdata)
# ** Error:                  415 RDATA CHANNEL HANDSHAKING ASSERTION FAILED !!!
#    Time: 415 ns Started: 415 ns  Scope: axi_top.axi_ass_inst.Rvalid_Ready_property_check File: ../TOP/axi_assertion.sv Line: 111 Expr: $past(inf.arvalid,null,inf.arvalid&inf.arready)
#                  425 MASTER DRIVER WRITE RESPONSE 
#                  425 *** Slave Monitor Write Data with response *** 
#                  425 *** Master Monitor Write Data with response *** 
#                  425|| ---- WRITE RESPONSE SUCCESS !!!! ---- || Success Count = 5
# ** Info:                  425 WDATA CHANNEL HANDSHAKING ASSERTION PASSED !!!
#    Time: 425 ns Started: 415 ns  Scope: axi_top.axi_ass_inst.WValid_Ready_property_check File: ../TOP/axi_assertion.sv Line: 95
# ** Error:                  425 RDATA CHANNEL HANDSHAKING ASSERTION FAILED !!!
#    Time: 425 ns Started: 425 ns  Scope: axi_top.axi_ass_inst.Rvalid_Ready_property_check File: ../TOP/axi_assertion.sv Line: 111 Expr: $past(inf.arvalid,null,inf.arvalid&inf.arready)
# ** Error:                  435 RDATA CHANNEL HANDSHAKING ASSERTION FAILED !!!
#    Time: 435 ns Started: 435 ns  Scope: axi_top.axi_ass_inst.Rvalid_Ready_property_check File: ../TOP/axi_assertion.sv Line: 111 Expr: $past(inf.arvalid,null,inf.arvalid&inf.arready)
# ** Error:                  445 RDATA CHANNEL HANDSHAKING ASSERTION FAILED !!!
#    Time: 445 ns Started: 445 ns  Scope: axi_top.axi_ass_inst.Rvalid_Ready_property_check File: ../TOP/axi_assertion.sv Line: 111 Expr: $past(inf.arvalid,null,inf.arvalid&inf.arready)
# ** Error:                  455 RDATA CHANNEL HANDSHAKING ASSERTION FAILED !!!
#    Time: 455 ns Started: 455 ns  Scope: axi_top.axi_ass_inst.Rvalid_Ready_property_check File: ../TOP/axi_assertion.sv Line: 111 Expr: $past(inf.arvalid,null,inf.arvalid&inf.arready)
# ** Error:                  465 RDATA CHANNEL HANDSHAKING ASSERTION FAILED !!!
#    Time: 465 ns Started: 465 ns  Scope: axi_top.axi_ass_inst.Rvalid_Ready_property_check File: ../TOP/axi_assertion.sv Line: 111 Expr: $past(inf.arvalid,null,inf.arvalid&inf.arready)
# ** Error:                  475 RDATA CHANNEL HANDSHAKING ASSERTION FAILED !!!
#    Time: 475 ns Started: 475 ns  Scope: axi_top.axi_ass_inst.Rvalid_Ready_property_check File: ../TOP/axi_assertion.sv Line: 111 Expr: $past(inf.arvalid,null,inf.arvalid&inf.arready)
# ** Error:                  485 RDATA CHANNEL HANDSHAKING ASSERTION FAILED !!!
#    Time: 485 ns Started: 485 ns  Scope: axi_top.axi_ass_inst.Rvalid_Ready_property_check File: ../TOP/axi_assertion.sv Line: 111 Expr: $past(inf.arvalid,null,inf.arvalid&inf.arready)
# ** Error:                  495 RDATA CHANNEL HANDSHAKING ASSERTION FAILED !!!
#    Time: 495 ns Started: 495 ns  Scope: axi_top.axi_ass_inst.Rvalid_Ready_property_check File: ../TOP/axi_assertion.sv Line: 111 Expr: $past(inf.arvalid,null,inf.arvalid&inf.arready)
#                  505 *** Slave Monitor Write Data *** 
#                  505 *** Master Monitor Write Data *** 
#                  505: Slave sequence WRITE response 
#  ==  witem_arr[51]  == 
# ------------------------------------------------------
# Name             Type                Size  Value      
# ------------------------------------------------------
#  witem_arr[51]   uvm_sequence_item   -     @1603      
#   operation      operation_se        2     WRITE      
#   awid           integral            8     'd51       
#   awaddr         da(integral)        8     -          
#     [0]          integral            32    'h34f8bef1 
#     [1]          integral            32    'h34f8bef2 
#     [2]          integral            32    'h34f8bef3 
#     [3]          integral            32    'h34f8bef4 
#     [4]          integral            32    'h34f8bef5 
#     [5]          integral            32    'h34f8bef6 
#     [6]          integral            32    'h34f8bef7 
#     [7]          integral            32    'h34f8bef0 
#   awlen          integral            8     'd7        
#   awsize         axi_size_se         3     size_1_BYTE
#   awburst        axi_burst_se        2     WRAP       
#   wid            integral            8     'd51       
#   wdata          da(integral)        8     -          
#     [0]          integral            32    'h2575f47f 
#     [1]          integral            32    'ha7e8be63 
#     [2]          integral            32    'h69c0cbd1 
#     [3]          integral            32    'h663136f0 
#     [4]          integral            32    'hc1579778 
#     [5]          integral            32    'h8fbe0141 
#     [6]          integral            32    'h2a48ab02 
#     [7]          integral            32    'hd7ec10f4 
#   wstrb          da(integral)        8     -          
#     [0]          integral            4     'b1        
#     [1]          integral            4     'b10       
#     [2]          integral            4     'b100      
#     [3]          integral            4     'b1000     
#     [4]          integral            4     'b1        
#     [5]          integral            4     'b10       
#     [6]          integral            4     'b100      
#     [7]          integral            4     'b1000     
#   bid            integral            8     'd51       
#   bresp          axi_resp_se         2     OKAY       
#   arid           integral            8     'd0        
#   araddr         da(integral)        0     -          
#   arlen          integral            8     'd0        
#   arsize         axi_size_se         3     size_1_BYTE
#   arburst        axi_burst_se        2     FIXED      
#   rid            integral            8     'd0        
#   rdata          da(integral)        0     -          
#   rresp          array(axi_resp_se)  0     -          
# ------------------------------------------------------
#                  505 REF_MODEL GET WRITE DATA 
# ** Error:                  505 RDATA CHANNEL HANDSHAKING ASSERTION FAILED !!!
#    Time: 505 ns Started: 505 ns  Scope: axi_top.axi_ass_inst.Rvalid_Ready_property_check File: ../TOP/axi_assertion.sv Line: 111 Expr: $past(inf.arvalid,null,inf.arvalid&inf.arready)
# ** Error:                  515 WDATA CHANNEL HANDSHAKING ASSERTION FAILED !!!
#    Time: 515 ns Started: 505 ns  Scope: axi_top.axi_ass_inst.WValid_Ready_property_check File: ../TOP/axi_assertion.sv Line: 96 Expr: $stable(inf.wdata)
# ** Error:                  515 RDATA CHANNEL HANDSHAKING ASSERTION FAILED !!!
#    Time: 515 ns Started: 515 ns  Scope: axi_top.axi_ass_inst.Rvalid_Ready_property_check File: ../TOP/axi_assertion.sv Line: 111 Expr: $past(inf.arvalid,null,inf.arvalid&inf.arready)
#                  525 MASTER DRIVER WRITE RESPONSE 
#                  525 *** Slave Monitor Write Data with response *** 
#                  525 *** Master Monitor Write Data with response *** 
#                  525|| ---- WRITE RESPONSE SUCCESS !!!! ---- || Success Count = 6
# ** Info:                  525 WDATA CHANNEL HANDSHAKING ASSERTION PASSED !!!
#    Time: 525 ns Started: 515 ns  Scope: axi_top.axi_ass_inst.WValid_Ready_property_check File: ../TOP/axi_assertion.sv Line: 95
# ** Error:                  525 RDATA CHANNEL HANDSHAKING ASSERTION FAILED !!!
#    Time: 525 ns Started: 525 ns  Scope: axi_top.axi_ass_inst.Rvalid_Ready_property_check File: ../TOP/axi_assertion.sv Line: 111 Expr: $past(inf.arvalid,null,inf.arvalid&inf.arready)
# ** Error:                  535 RDATA CHANNEL HANDSHAKING ASSERTION FAILED !!!
#    Time: 535 ns Started: 535 ns  Scope: axi_top.axi_ass_inst.Rvalid_Ready_property_check File: ../TOP/axi_assertion.sv Line: 111 Expr: $past(inf.arvalid,null,inf.arvalid&inf.arready)
# ** Error:                  545 RDATA CHANNEL HANDSHAKING ASSERTION FAILED !!!
#    Time: 545 ns Started: 545 ns  Scope: axi_top.axi_ass_inst.Rvalid_Ready_property_check File: ../TOP/axi_assertion.sv Line: 111 Expr: $past(inf.arvalid,null,inf.arvalid&inf.arready)
# ** Error:                  555 RDATA CHANNEL HANDSHAKING ASSERTION FAILED !!!
#    Time: 555 ns Started: 555 ns  Scope: axi_top.axi_ass_inst.Rvalid_Ready_property_check File: ../TOP/axi_assertion.sv Line: 111 Expr: $past(inf.arvalid,null,inf.arvalid&inf.arready)
# ** Error:                  565 RDATA CHANNEL HANDSHAKING ASSERTION FAILED !!!
#    Time: 565 ns Started: 565 ns  Scope: axi_top.axi_ass_inst.Rvalid_Ready_property_check File: ../TOP/axi_assertion.sv Line: 111 Expr: $past(inf.arvalid,null,inf.arvalid&inf.arready)
# ** Error:                  575 RDATA CHANNEL HANDSHAKING ASSERTION FAILED !!!
#    Time: 575 ns Started: 575 ns  Scope: axi_top.axi_ass_inst.Rvalid_Ready_property_check File: ../TOP/axi_assertion.sv Line: 111 Expr: $past(inf.arvalid,null,inf.arvalid&inf.arready)
# ** Error:                  585 RDATA CHANNEL HANDSHAKING ASSERTION FAILED !!!
#    Time: 585 ns Started: 585 ns  Scope: axi_top.axi_ass_inst.Rvalid_Ready_property_check File: ../TOP/axi_assertion.sv Line: 111 Expr: $past(inf.arvalid,null,inf.arvalid&inf.arready)
# ** Error:                  595 RDATA CHANNEL HANDSHAKING ASSERTION FAILED !!!
#    Time: 595 ns Started: 595 ns  Scope: axi_top.axi_ass_inst.Rvalid_Ready_property_check File: ../TOP/axi_assertion.sv Line: 111 Expr: $past(inf.arvalid,null,inf.arvalid&inf.arready)
#                  605 *** Slave Monitor Write Data *** 
#                  605 *** Master Monitor Write Data *** 
#                  605: Slave sequence WRITE response 
#  ==  witem_arr[108]  == 
# -------------------------------------------------------
# Name              Type                Size  Value      
# -------------------------------------------------------
#  witem_arr[108]   uvm_sequence_item   -     @1611      
#   operation       operation_se        2     WRITE      
#   awid            integral            8     'd108      
#   awaddr          da(integral)        8     -          
#     [0]           integral            32    'h5119ea21 
#     [1]           integral            32    'h5119ea22 
#     [2]           integral            32    'h5119ea23 
#     [3]           integral            32    'h5119ea24 
#     [4]           integral            32    'h5119ea25 
#     [5]           integral            32    'h5119ea26 
#     [6]           integral            32    'h5119ea27 
#     [7]           integral            32    'h5119ea20 
#   awlen           integral            8     'd7        
#   awsize          axi_size_se         3     size_1_BYTE
#   awburst         axi_burst_se        2     WRAP       
#   wid             integral            8     'd108      
#   wdata           da(integral)        8     -          
#     [0]           integral            32    'hdce6a0d6 
#     [1]           integral            32    'h7bcce75  
#     [2]           integral            32    'h48353eaf 
#     [3]           integral            32    'hdcf202e8 
#     [4]           integral            32    'h291472ba 
#     [5]           integral            32    'h4f9a9a63 
#     [6]           integral            32    'h9ec6d249 
#     [7]           integral            32    'ha7a55bca 
#   wstrb           da(integral)        8     -          
#     [0]           integral            4     'b1        
#     [1]           integral            4     'b10       
#     [2]           integral            4     'b100      
#     [3]           integral            4     'b1000     
#     [4]           integral            4     'b1        
#     [5]           integral            4     'b10       
#     [6]           integral            4     'b100      
#     [7]           integral            4     'b1000     
#   bid             integral            8     'd108      
#   bresp           axi_resp_se         2     OKAY       
#   arid            integral            8     'd0        
#   araddr          da(integral)        0     -          
#   arlen           integral            8     'd0        
#   arsize          axi_size_se         3     size_1_BYTE
#   arburst         axi_burst_se        2     FIXED      
#   rid             integral            8     'd0        
#   rdata           da(integral)        0     -          
#   rresp           array(axi_resp_se)  0     -          
# -------------------------------------------------------
#                  605 REF_MODEL GET WRITE DATA 
# ** Error:                  605 RDATA CHANNEL HANDSHAKING ASSERTION FAILED !!!
#    Time: 605 ns Started: 605 ns  Scope: axi_top.axi_ass_inst.Rvalid_Ready_property_check File: ../TOP/axi_assertion.sv Line: 111 Expr: $past(inf.arvalid,null,inf.arvalid&inf.arready)
# ** Error:                  615 WDATA CHANNEL HANDSHAKING ASSERTION FAILED !!!
#    Time: 615 ns Started: 605 ns  Scope: axi_top.axi_ass_inst.WValid_Ready_property_check File: ../TOP/axi_assertion.sv Line: 96 Expr: $stable(inf.wdata)
# ** Error:                  615 RDATA CHANNEL HANDSHAKING ASSERTION FAILED !!!
#    Time: 615 ns Started: 615 ns  Scope: axi_top.axi_ass_inst.Rvalid_Ready_property_check File: ../TOP/axi_assertion.sv Line: 111 Expr: $past(inf.arvalid,null,inf.arvalid&inf.arready)
#                  625 MASTER DRIVER WRITE RESPONSE 
#                  625 *** Slave Monitor Write Data with response *** 
#                  625 *** Master Monitor Write Data with response *** 
#                  625|| ---- WRITE RESPONSE SUCCESS !!!! ---- || Success Count = 7
# ** Info:                  625 WDATA CHANNEL HANDSHAKING ASSERTION PASSED !!!
#    Time: 625 ns Started: 615 ns  Scope: axi_top.axi_ass_inst.WValid_Ready_property_check File: ../TOP/axi_assertion.sv Line: 95
# ** Error:                  625 RDATA CHANNEL HANDSHAKING ASSERTION FAILED !!!
#    Time: 625 ns Started: 625 ns  Scope: axi_top.axi_ass_inst.Rvalid_Ready_property_check File: ../TOP/axi_assertion.sv Line: 111 Expr: $past(inf.arvalid,null,inf.arvalid&inf.arready)
# ** Error:                  635 RDATA CHANNEL HANDSHAKING ASSERTION FAILED !!!
#    Time: 635 ns Started: 635 ns  Scope: axi_top.axi_ass_inst.Rvalid_Ready_property_check File: ../TOP/axi_assertion.sv Line: 111 Expr: $past(inf.arvalid,null,inf.arvalid&inf.arready)
#                  645 *** Slave Monitor Write Data *** 
#                  645 *** Master Monitor Write Data *** 
#                  645: Slave sequence WRITE response 
#  ==  witem_arr[41]  == 
# -------------------------------------------------------
# Name             Type                Size  Value       
# -------------------------------------------------------
#  witem_arr[41]   uvm_sequence_item   -     @1619       
#   operation      operation_se        2     WRITE       
#   awid           integral            8     'd41        
#   awaddr         da(integral)        4     -           
#     [0]          integral            32    'h5cf404d4  
#     [1]          integral            32    'h5cf404d5  
#     [2]          integral            32    'h5cf404d6  
#     [3]          integral            32    'h5cf404d7  
#   awlen          integral            8     'd1         
#   awsize         axi_size_se         3     size_2_BYTES
#   awburst        axi_burst_se        2     WRAP        
#   wid            integral            8     'd41        
#   wdata          da(integral)        2     -           
#     [0]          integral            32    'hc3031996  
#     [1]          integral            32    'hc7b4e9a8  
#   wstrb          da(integral)        2     -           
#     [0]          integral            4     'b11        
#     [1]          integral            4     'b1100      
#   bid            integral            8     'd41        
#   bresp          axi_resp_se         2     OKAY        
#   arid           integral            8     'd0         
#   araddr         da(integral)        0     -           
#   arlen          integral            8     'd0         
#   arsize         axi_size_se         3     size_1_BYTE 
#   arburst        axi_burst_se        2     FIXED       
#   rid            integral            8     'd0         
#   rdata          da(integral)        0     -           
#   rresp          array(axi_resp_se)  0     -           
# -------------------------------------------------------
#                  645 REF_MODEL GET WRITE DATA 
# ** Error:                  645 RDATA CHANNEL HANDSHAKING ASSERTION FAILED !!!
#    Time: 645 ns Started: 645 ns  Scope: axi_top.axi_ass_inst.Rvalid_Ready_property_check File: ../TOP/axi_assertion.sv Line: 111 Expr: $past(inf.arvalid,null,inf.arvalid&inf.arready)
# ** Error:                  655 WDATA CHANNEL HANDSHAKING ASSERTION FAILED !!!
#    Time: 655 ns Started: 645 ns  Scope: axi_top.axi_ass_inst.WValid_Ready_property_check File: ../TOP/axi_assertion.sv Line: 96 Expr: $stable(inf.wdata)
# ** Error:                  655 RDATA CHANNEL HANDSHAKING ASSERTION FAILED !!!
#    Time: 655 ns Started: 655 ns  Scope: axi_top.axi_ass_inst.Rvalid_Ready_property_check File: ../TOP/axi_assertion.sv Line: 111 Expr: $past(inf.arvalid,null,inf.arvalid&inf.arready)
#                  665 MASTER DRIVER WRITE RESPONSE 
#                  665 *** Slave Monitor Write Data with response *** 
#                  665 *** Master Monitor Write Data with response *** 
#                  665|| ---- WRITE RESPONSE SUCCESS !!!! ---- || Success Count = 8
# ** Info:                  665 WDATA CHANNEL HANDSHAKING ASSERTION PASSED !!!
#    Time: 665 ns Started: 655 ns  Scope: axi_top.axi_ass_inst.WValid_Ready_property_check File: ../TOP/axi_assertion.sv Line: 95
# ** Error:                  665 RDATA CHANNEL HANDSHAKING ASSERTION FAILED !!!
#    Time: 665 ns Started: 665 ns  Scope: axi_top.axi_ass_inst.Rvalid_Ready_property_check File: ../TOP/axi_assertion.sv Line: 111 Expr: $past(inf.arvalid,null,inf.arvalid&inf.arready)
# ** Error:                  675 RDATA CHANNEL HANDSHAKING ASSERTION FAILED !!!
#    Time: 675 ns Started: 675 ns  Scope: axi_top.axi_ass_inst.Rvalid_Ready_property_check File: ../TOP/axi_assertion.sv Line: 111 Expr: $past(inf.arvalid,null,inf.arvalid&inf.arready)
# ** Error:                  685 RDATA CHANNEL HANDSHAKING ASSERTION FAILED !!!
#    Time: 685 ns Started: 685 ns  Scope: axi_top.axi_ass_inst.Rvalid_Ready_property_check File: ../TOP/axi_assertion.sv Line: 111 Expr: $past(inf.arvalid,null,inf.arvalid&inf.arready)
# ** Error:                  695 RDATA CHANNEL HANDSHAKING ASSERTION FAILED !!!
#    Time: 695 ns Started: 695 ns  Scope: axi_top.axi_ass_inst.Rvalid_Ready_property_check File: ../TOP/axi_assertion.sv Line: 111 Expr: $past(inf.arvalid,null,inf.arvalid&inf.arready)
# ** Error:                  705 RDATA CHANNEL HANDSHAKING ASSERTION FAILED !!!
#    Time: 705 ns Started: 705 ns  Scope: axi_top.axi_ass_inst.Rvalid_Ready_property_check File: ../TOP/axi_assertion.sv Line: 111 Expr: $past(inf.arvalid,null,inf.arvalid&inf.arready)
# ** Error:                  715 RDATA CHANNEL HANDSHAKING ASSERTION FAILED !!!
#    Time: 715 ns Started: 715 ns  Scope: axi_top.axi_ass_inst.Rvalid_Ready_property_check File: ../TOP/axi_assertion.sv Line: 111 Expr: $past(inf.arvalid,null,inf.arvalid&inf.arready)
# ** Error:                  725 RDATA CHANNEL HANDSHAKING ASSERTION FAILED !!!
#    Time: 725 ns Started: 725 ns  Scope: axi_top.axi_ass_inst.Rvalid_Ready_property_check File: ../TOP/axi_assertion.sv Line: 111 Expr: $past(inf.arvalid,null,inf.arvalid&inf.arready)
# ** Error:                  735 RDATA CHANNEL HANDSHAKING ASSERTION FAILED !!!
#    Time: 735 ns Started: 735 ns  Scope: axi_top.axi_ass_inst.Rvalid_Ready_property_check File: ../TOP/axi_assertion.sv Line: 111 Expr: $past(inf.arvalid,null,inf.arvalid&inf.arready)
#                  745 *** Slave Monitor Write Data *** 
#                  745 *** Master Monitor Write Data *** 
#                  745: Slave sequence WRITE response 
#  ==  witem_arr[138]  == 
# -------------------------------------------------------
# Name              Type                Size  Value      
# -------------------------------------------------------
#  witem_arr[138]   uvm_sequence_item   -     @1627      
#   operation       operation_se        2     WRITE      
#   awid            integral            8     138        
#   awaddr          da(integral)        8     -          
#     [0]           integral            32    'h3fb7060f 
#     [1]           integral            32    'h3fb70608 
#     [2]           integral            32    'h3fb70609 
#     [3]           integral            32    'h3fb7060a 
#     [4]           integral            32    'h3fb7060b 
#     [5]           integral            32    'h3fb7060c 
#     [6]           integral            32    'h3fb7060d 
#     [7]           integral            32    'h3fb7060e 
#   awlen           integral            8     'd7        
#   awsize          axi_size_se         3     size_1_BYTE
#   awburst         axi_burst_se        2     WRAP       
#   wid             integral            8     138        
#   wdata           da(integral)        8     -          
#     [0]           integral            32    'hc00db734 
#     [1]           integral            32    'hd9a0193d 
#     [2]           integral            32    'h607ea295 
#     [3]           integral            32    'h66e45fb7 
#     [4]           integral            32    'h59c8b12f 
#     [5]           integral            32    'h6aa764aa 
#     [6]           integral            32    'h277928c2 
#     [7]           integral            32    'h2f2eb8b7 
#   wstrb           da(integral)        8     -          
#     [0]           integral            4     'b1        
#     [1]           integral            4     'b10       
#     [2]           integral            4     'b100      
#     [3]           integral            4     'b1000     
#     [4]           integral            4     'b1        
#     [5]           integral            4     'b10       
#     [6]           integral            4     'b100      
#     [7]           integral            4     'b1000     
#   bid             integral            8     138        
#   bresp           axi_resp_se         2     OKAY       
#   arid            integral            8     'd0        
#   araddr          da(integral)        0     -          
#   arlen           integral            8     'd0        
#   arsize          axi_size_se         3     size_1_BYTE
#   arburst         axi_burst_se        2     FIXED      
#   rid             integral            8     'd0        
#   rdata           da(integral)        0     -          
#   rresp           array(axi_resp_se)  0     -          
# -------------------------------------------------------
#                  745 REF_MODEL GET WRITE DATA 
# ** Error:                  745 RDATA CHANNEL HANDSHAKING ASSERTION FAILED !!!
#    Time: 745 ns Started: 745 ns  Scope: axi_top.axi_ass_inst.Rvalid_Ready_property_check File: ../TOP/axi_assertion.sv Line: 111 Expr: $past(inf.arvalid,null,inf.arvalid&inf.arready)
# ** Error:                  755 WDATA CHANNEL HANDSHAKING ASSERTION FAILED !!!
#    Time: 755 ns Started: 745 ns  Scope: axi_top.axi_ass_inst.WValid_Ready_property_check File: ../TOP/axi_assertion.sv Line: 96 Expr: $stable(inf.wdata)
# ** Error:                  755 RDATA CHANNEL HANDSHAKING ASSERTION FAILED !!!
#    Time: 755 ns Started: 755 ns  Scope: axi_top.axi_ass_inst.Rvalid_Ready_property_check File: ../TOP/axi_assertion.sv Line: 111 Expr: $past(inf.arvalid,null,inf.arvalid&inf.arready)
#                  765 MASTER DRIVER WRITE RESPONSE 
#                  765 *** Slave Monitor Write Data with response *** 
#                  765 *** Master Monitor Write Data with response *** 
#                  765|| ---- WRITE RESPONSE SUCCESS !!!! ---- || Success Count = 9
# ** Info:                  765 WDATA CHANNEL HANDSHAKING ASSERTION PASSED !!!
#    Time: 765 ns Started: 755 ns  Scope: axi_top.axi_ass_inst.WValid_Ready_property_check File: ../TOP/axi_assertion.sv Line: 95
# ** Error:                  765 RDATA CHANNEL HANDSHAKING ASSERTION FAILED !!!
#    Time: 765 ns Started: 765 ns  Scope: axi_top.axi_ass_inst.Rvalid_Ready_property_check File: ../TOP/axi_assertion.sv Line: 111 Expr: $past(inf.arvalid,null,inf.arvalid&inf.arready)
# ** Error:                  775 RDATA CHANNEL HANDSHAKING ASSERTION FAILED !!!
#    Time: 775 ns Started: 775 ns  Scope: axi_top.axi_ass_inst.Rvalid_Ready_property_check File: ../TOP/axi_assertion.sv Line: 111 Expr: $past(inf.arvalid,null,inf.arvalid&inf.arready)
# ** Error:                  785 RDATA CHANNEL HANDSHAKING ASSERTION FAILED !!!
#    Time: 785 ns Started: 785 ns  Scope: axi_top.axi_ass_inst.Rvalid_Ready_property_check File: ../TOP/axi_assertion.sv Line: 111 Expr: $past(inf.arvalid,null,inf.arvalid&inf.arready)
# ** Error:                  795 RDATA CHANNEL HANDSHAKING ASSERTION FAILED !!!
#    Time: 795 ns Started: 795 ns  Scope: axi_top.axi_ass_inst.Rvalid_Ready_property_check File: ../TOP/axi_assertion.sv Line: 111 Expr: $past(inf.arvalid,null,inf.arvalid&inf.arready)
# ** Error:                  805 RDATA CHANNEL HANDSHAKING ASSERTION FAILED !!!
#    Time: 805 ns Started: 805 ns  Scope: axi_top.axi_ass_inst.Rvalid_Ready_property_check File: ../TOP/axi_assertion.sv Line: 111 Expr: $past(inf.arvalid,null,inf.arvalid&inf.arready)
# ** Error:                  815 RDATA CHANNEL HANDSHAKING ASSERTION FAILED !!!
#    Time: 815 ns Started: 815 ns  Scope: axi_top.axi_ass_inst.Rvalid_Ready_property_check File: ../TOP/axi_assertion.sv Line: 111 Expr: $past(inf.arvalid,null,inf.arvalid&inf.arready)
# ** Error:                  825 RDATA CHANNEL HANDSHAKING ASSERTION FAILED !!!
#    Time: 825 ns Started: 825 ns  Scope: axi_top.axi_ass_inst.Rvalid_Ready_property_check File: ../TOP/axi_assertion.sv Line: 111 Expr: $past(inf.arvalid,null,inf.arvalid&inf.arready)
# ** Error:                  835 RDATA CHANNEL HANDSHAKING ASSERTION FAILED !!!
#    Time: 835 ns Started: 835 ns  Scope: axi_top.axi_ass_inst.Rvalid_Ready_property_check File: ../TOP/axi_assertion.sv Line: 111 Expr: $past(inf.arvalid,null,inf.arvalid&inf.arready)
#                  845 *** Slave Monitor Write Data *** 
#                  845 *** Master Monitor Write Data *** 
#                  845: Slave sequence WRITE response 
#  ==  witem_arr[71]  == 
# ------------------------------------------------------
# Name             Type                Size  Value      
# ------------------------------------------------------
#  witem_arr[71]   uvm_sequence_item   -     @1635      
#   operation      operation_se        2     WRITE      
#   awid           integral            8     'd71       
#   awaddr         da(integral)        8     -          
#     [0]          integral            32    'h3eb39654 
#     [1]          integral            32    'h3eb39655 
#     [2]          integral            32    'h3eb39656 
#     [3]          integral            32    'h3eb39657 
#     [4]          integral            32    'h3eb39650 
#     [5]          integral            32    'h3eb39651 
#     [6]          integral            32    'h3eb39652 
#     [7]          integral            32    'h3eb39653 
#   awlen          integral            8     'd7        
#   awsize         axi_size_se         3     size_1_BYTE
#   awburst        axi_burst_se        2     WRAP       
#   wid            integral            8     'd71       
#   wdata          da(integral)        8     -          
#     [0]          integral            32    'hac182ec  
#     [1]          integral            32    'hb32bb327 
#     [2]          integral            32    'h15ce679  
#     [3]          integral            32    'he6682b3  
#     [4]          integral            32    'h909f1bce 
#     [5]          integral            32    'hd9f608b8 
#     [6]          integral            32    'hf18bfdc2 
#     [7]          integral            32    'h1aa9ede0 
#   wstrb          da(integral)        8     -          
#     [0]          integral            4     'b1        
#     [1]          integral            4     'b10       
#     [2]          integral            4     'b100      
#     [3]          integral            4     'b1000     
#     [4]          integral            4     'b1        
#     [5]          integral            4     'b10       
#     [6]          integral            4     'b100      
#     [7]          integral            4     'b1000     
#   bid            integral            8     'd71       
#   bresp          axi_resp_se         2     OKAY       
#   arid           integral            8     'd0        
#   araddr         da(integral)        0     -          
#   arlen          integral            8     'd0        
#   arsize         axi_size_se         3     size_1_BYTE
#   arburst        axi_burst_se        2     FIXED      
#   rid            integral            8     'd0        
#   rdata          da(integral)        0     -          
#   rresp          array(axi_resp_se)  0     -          
# ------------------------------------------------------
#                  845 REF_MODEL GET WRITE DATA 
# ** Error:                  845 RDATA CHANNEL HANDSHAKING ASSERTION FAILED !!!
#    Time: 845 ns Started: 845 ns  Scope: axi_top.axi_ass_inst.Rvalid_Ready_property_check File: ../TOP/axi_assertion.sv Line: 111 Expr: $past(inf.arvalid,null,inf.arvalid&inf.arready)
